#Parameters = {beta=0.6; bunch=3.6; conductivity=10000; l=20; l_pipe=40; nmesh=50; r=10; r_pipe=2; samples=2000; wakelength=400; xbeam=0; xtest=0; ybeam=0; ytest=0}
#"Frequency / GHz"	"Z (beta=0.6) [Real/Imaginary Part] [Re]"	"Z (beta=0.6) [Real/Imaginary Part] [Im]"
#-----------------------------------------------------------------------------------------------------
0.0000000000000	-0.87860794995188	7.4894183045899e-10
0.00085368889540069	-0.86789357532087	-2.7515324280698
0.0017073777908014	-0.83597684720731	-5.5061583953996
0.0025610666862021	-0.78353210745184	-8.2669053988797
0.0034147555816028	-0.71166720971606	-11.036670269943
0.0042684444770034	-0.62189980697849	-13.818157347732
0.0051221333724041	-0.51612486824833	-16.613820778510
0.0059758222678048	-0.39657412223268	-19.425812175969
0.0068295111632055	-0.26576829524979	-22.255934763576
0.0076832000586062	-0.12646316857091	-25.105604983092
0.0085368889540069	0.018409387718675	-27.975822389654
0.0093905778494076	0.16580414261238	-30.867148480092
0.010244266744808	0.31262764689631	-33.779694906095
0.011097955640209	0.45580439524876	-36.713121325918
0.011951644535610	0.59234258914380	-39.666642939072
0.012805333431010	0.71939809031160	-42.639047541975
0.013659022326411	0.83433519496639	-45.628721738524
0.014512711221812	0.93478292359092	-48.633685742754
0.015366400117212	1.0186856216668	-51.651636026323
0.016220089012613	1.0843467856302	-54.679994896562
0.017073777908014	1.1304651735443	-57.715965940011
0.017927466803414	1.1561624283862	-60.756594142231
0.018781155698815	1.1610016199020	-63.798829394050
0.019634844594216	1.1449963086466	-66.839592020913
0.020488533489617	1.1086099383037	-69.875838928943
0.021342222385017	1.0527455694591	-72.904628948450
0.022195911280418	0.97872617501914	-75.923185971996
0.023049600175819	0.88826592253152	-78.928958531345
0.023903289071219	0.78343305750690	-81.919674535122
0.024756977966620	0.66660518735130	-84.893389990528
0.025610666862021	0.54041792468471	-87.848530663978
0.026464355757421	0.40770799350126	-90.783925784843
0.027318044652822	0.27145202134301	-93.698833068375
0.028171733548223	0.13470233004230	-96.592954520046
0.029025422443623	0.00052110718793406	-99.466442681046
0.029879111339024	-0.12808562873839	-102.31989717965
0.030732800234425	-0.24823284985706	-105.15435166288
0.031586489129825	-0.35721873309830	-107.97125138687
0.032440178025226	-0.45258292954238	-110.77242194801
0.033293866920627	-0.53215963590081	-113.56002982509
0.034147555816028	-0.59412432496296	-116.33653558015
0.035001244711428	-0.63703313008538	-119.10464072262
0.035854933606829	-0.65985403453723	-121.86722937916
0.036708622502230	-0.66198919268774	-124.62730602214
0.037562311397630	-0.64328790177851	-127.38793059591
0.038416000293031	-0.60404994159887	-130.15215243569
0.039269689188432	-0.54501920789813	-132.92294440067
0.040123378083832	-0.46736777415813	-135.70313863922
0.040977066979233	-0.37267072050126	-138.49536536809
0.041830755874634	-0.26287226920391	-141.30199598585
0.042684444770034	-0.14024395196397	-144.12509174506
0.043538133665435	-0.0073357064216668	-146.96635909150
0.044391822560836	0.13307904800024	-149.82711263383
0.045245511456236	0.27806317569031	-152.70824654508
0.046099200351637	0.42457914673965	-155.61021501447
0.046952889247038	0.56955455376960	-158.53302217660
0.047806578142439	0.70994841392800	-161.47622173764
0.048660267037839	0.84281682889763	-164.43892631349
0.049513955933240	0.96537658794264	-167.41982628302
0.050367644828641	1.0750653440853	-170.41721775683
0.051221333724041	1.1695970641773	-173.42903906322
0.052075022619442	1.2470115565833	-176.45291497261
0.052928711514843	1.3057170052061	-179.48620771127
0.053782400410243	1.3445245896730	-182.52607367082
0.054636089305644	1.3626744397953	-185.56952459577
0.055489778201045	1.3598523599084	-188.61349193393
0.056343467096445	1.3361969554418	-191.65489296606
0.057197155991846	1.2922970013126	-194.69069729131
0.058050844887247	1.2291791015114	-197.71799223648
0.058904533782647	1.1482858978815	-200.73404577891
0.059758222678048	1.0514452898946	-203.73636562570
0.060611911573449	0.94083132145193	-206.72275317293
0.061465600468850	0.81891757027738	-209.69135117813
0.062319289364250	0.68842403743327	-212.64068411340
0.063172978259651	0.55225867615649	-215.56969032318
0.064026667155052	0.41345481442441	-218.47774528668
0.064880356050452	0.27510581642882	-221.36467547506
0.065734044945853	0.14029838774297	-224.23076249646
0.066587733841254	0.012045960833709	-227.07673743029
0.067441422736654	-0.10677640455458	-229.90376546275
0.068295111632055	-0.21349420078667	-232.71342114593
0.069148800527456	-0.30569138936993	-235.50765480374
0.070002489422856	-0.38126280254258	-238.28875079973
0.070856178318257	-0.43845989501945	-241.05927855758
0.071709867213658	-0.47592885219492	-243.82203738258
0.072563556109058	-0.49274022589461	-246.57999626620
0.073417245004459	-0.48840944952418	-249.33622996604
0.074270933899860	-0.46290778020085	-252.09385273452
0.075124622795261	-0.41666342171796	-254.85595112198
0.075978311690661	-0.35055279268892	-257.62551730179
0.076832000586062	-0.26588211701833	-260.40538435498
0.077685689481463	-0.16435972184517	-263.19816491162
0.078539378376863	-0.048059629669784	-266.00619447579
0.079393067272264	0.080622781453162	-268.83148066088
0.080246756167665	0.21902210312159	-271.67565943758
0.081100445063065	0.36426010939135	-274.53995934537
0.081954133958466	0.51330763118751	-277.42517444961
0.082807822853867	0.66304976423642	-280.33164663799
0.083661511749267	0.81035300871911	-283.25925764978
0.084515200644668	0.95213289600049	-286.20743102246
0.085368889540069	1.0854206447540	-289.17514392656
0.086222578435469	1.2074274080009	-292.16094864646
0.087076267330870	1.3156047228711	-295.16300325702
0.087929956226271	1.4076998541138	-298.17911084687
0.088783645121672	1.4818048316776	-301.20676645413
0.089637334017072	1.5363981154730	-304.24321071324
0.090491022912473	1.5703779794805	-307.28548906519
0.091344711807874	1.5830868828391	-310.33051526223
0.092198400703274	1.5743262903490	-313.37513780379
0.093052089598675	1.5443616083802	-316.41620787452
0.093905778494076	1.4939171159866	-319.45064732219
0.094759467389476	1.4241609856806	-322.47551520869
0.095613156284877	1.3366807023242	-325.48807149707
0.096466845180278	1.2334493961537	-328.48583649676
0.097320534075678	1.1167838023804	-331.46664477806
0.098174222971079	0.98929474146440	-334.42869238480
0.099027911866480	0.85383117686258	-337.37057631663
0.099881600761880	0.71341904704703	-340.29132541709
0.10073528965728	0.57119618323796	-343.19042198778
0.10158897855268	0.43034471048570	-346.06781364801
0.10244266744808	0.29402238688821	-348.92391516829
0.10329635634348	0.16529436001254	-351.75960022240
0.10415004523888	0.047066814056806	-354.57618321951
0.10500373413428	-0.057976058002833	-357.37539159235
0.10585742302969	-0.14743039161358	-360.15932912362
0.10671111192509	-0.21922503088978	-362.93043108728
0.10756480082049	-0.27166681160892	-365.69141215883
0.10841848971589	-0.30347775803839	-368.44520820680
0.10927217861129	-0.31382337708568	-371.19491321074
0.11012586750669	-0.30233142413470	-373.94371265929
0.11097955640209	-0.26910071913564	-376.69481485904
0.11183324529749	-0.21469980562499	-379.45138163345
0.11268693419289	-0.14015546366431	-382.21645990622
0.11354062308829	-0.046931306967857	-384.99291564735
0.11439431198369	0.063103091340259	-387.78337161197
0.11524800087909	0.18771189481920	-390.59015022216
0.11610168977449	0.32434068078472	-393.41522283432
0.11695537866989	0.47017108342150	-396.26016649862
0.11780906756529	0.62218123608739	-399.12612915753
0.11866275646070	0.77721071858117	-402.01380405030
0.11951644535610	0.93202861576649	-404.92341389275
0.12037013425150	1.0834032236154	-407.85470519243
0.12122382314690	1.2281719010855	-410.80695284054
0.12207751204230	1.3633095598408	-413.77897490088
0.12293120093770	1.4859943102754	-416.76915729591
0.12378488983310	1.5936688411446	-419.77548787575
0.12463857872850	1.6840961989672	-422.79559915235
0.12549226762390	1.7554087521158	-425.82681879287
0.12634595651930	1.8061492686881	-428.86622679698
0.12719964541470	1.8353032057465	-431.91071813600
0.12805333431010	1.8423214952679	-434.95706951247
0.12890702320550	1.8271333157351	-438.00200880574
0.12976071210090	1.7901485537268	-441.04228570942
0.13061440099631	1.7322498814822	-444.07474203727
0.13146808989171	1.6547746006797	-447.09638017812
0.13232177878711	1.5594866240013	-450.10442821744
0.13317546768251	1.4485391793105	-453.09640031195
0.13402915657791	1.3244290233402	-456.07015100313
0.13488284547331	1.1899431365046	-459.02392228396
0.13573653436871	1.0480990346342	-461.95638238683
0.13659022326411	0.90207997423983	-464.86665543703
0.13744391215951	0.75516644033600	-467.75434131256
0.13829760105491	0.61066538943005	-470.61952525959
0.13915128995031	0.47183877183207	-473.46277703487
0.14000497884571	0.34183287644663	-476.28513957056
0.14085866774111	0.22361002642390	-479.08810738436
0.14171235663651	0.11988410728878	-481.87359517921
0.14256604553191	0.033061328779894	-484.64389728990
0.14341973442732	-0.034812487412627	-487.40163883301
0.14427342332272	-0.082096940762091	-490.14971959807
0.14512711221812	-0.10759341523712	-492.89125187634
0.14598080111352	-0.11057196782630	-495.62949355799
0.14683449000892	-0.090788139740914	-498.36777793311
0.14768817890432	-0.048489304428344	-501.10944170688
0.14854186779972	0.015589608556690	-503.85775278090
0.14939555669512	0.10024094518086	-506.61583936164
0.15024924559052	0.20380941770142	-509.38662193170
0.15110293448592	0.32422693522691	-512.17274956121
0.15195662338132	0.45905644357556	-514.97654194659
0.15281031227672	0.60554384707229	-517.79993844296
0.15366400117212	0.76067690835229	-520.64445520885
0.15451769006752	0.92124986872597	-523.51115140865
0.15537137896293	1.0839324049664	-526.40060522494
0.15622506785833	1.2453414413906	-529.31290022268
0.15707875675373	1.4021142708205	-532.24762238449
0.15793244564913	1.5509814061043	-535.20386790655
0.15878613454453	1.6888375855760	-538.18026161224
0.15963982343993	1.8128093923350	-541.17498561046
0.16049351233533	1.9203180163027	-544.18581760351
0.16134720123073	2.0091357896881	-547.21017803915
0.16220089012613	2.0774352575796	-550.24518510814
0.16305457902153	2.1238297039105	-553.28771641665
0.16390826791693	2.1474042350105	-556.33447601543
0.16476195681233	2.1477367249208	-559.38206534881
0.16561564570773	2.1249081442498	-562.42705659783
0.16646933460313	2.0795020227990	-565.46606683657
0.16732302349853	2.0125930302542	-568.49583139893
0.16817671239394	1.9257248951389	-571.51327486608
0.16903040128934	1.8208781128777	-574.51557813246
0.16988409018474	1.7004281160989	-577.50024008884
0.17073777908014	1.5670947885203	-580.46513257388
0.17159146797554	1.4238843928681	-583.40854738739
0.17244515687094	1.2740251507082	-586.32923432768
0.17329884576634	1.1208978522064	-589.22642940641
0.17415253466174	0.96796298523980	-592.09987260484
0.17500622355714	0.81868595233703	-594.94981476014
0.17585991245254	0.67646198961529	-597.77701340433
0.17671360134794	0.54454241235979	-600.58271761720
0.17756729024334	0.42596378771793	-603.36864219245
0.17842097913874	0.32348157575863	-606.13693164822
0.17927466803414	0.23950968758495	-608.89011483465
0.18012835692955	0.17606728506466	-611.63105109644
0.18098204582495	0.13473399344376	-614.36286913396
0.18183573472035	0.11661451927542	-617.08889986734
0.18268942361575	0.12231346514816	-619.81260474163
0.18354311251115	0.15192091407508	-622.53750101352
0.18439680140655	0.20500912485244	-625.26708562973
0.18525049030195	0.28064044007324	-628.00475934216
0.18610417919735	0.37738626591071	-630.75375270422
0.18695786809275	0.49335674278473	-633.51705555655
0.18781155698815	0.62624049336167	-636.29735153937
0.18866524588355	0.77335361439590	-639.09695906392
0.18951893477895	0.93169687658293	-641.91778003985
0.19037262367435	1.0980199156372	-644.76125749083
0.19122631256975	1.2688910432220	-647.62834300141
0.19208000146515	1.4407711806539	-650.51947472804
0.19293369036056	1.6100903247413	-653.43456648014
0.19378737925596	1.7733248957740	-656.37300813898
0.19464106815136	1.9270742939611	-659.33367743718
0.19549475704676	2.0681350026837	-662.31496287565
0.19634844594216	2.1935706257578	-665.31479731274
0.19720213483756	2.3007763288342	-668.33070152804
0.19805582373296	2.3875362723188	-671.35983684492
0.19890951262836	2.4520727706847	-674.39906569695
0.19976320152376	2.4930860887614	-677.44501884822
0.20061689041916	2.5097839852992	-680.49416782942
0.20147057931456	2.5019003336238	-683.54290103412
0.20232426820996	2.4697023840142	-686.58760183633
0.20317795710536	2.4139864773237	-689.62472704121
0.20403164600076	2.3360622689903	-692.65088396896
0.20488533489617	2.2377257720629	-695.66290449634
0.20573902379157	2.1212217707611	-698.65791444128
0.20659271268697	1.9891963885681	-701.63339677219
0.20744640158237	1.8446408103123	-704.58724725279
0.20830009047777	1.6908273526203	-707.51782129332
0.20915377937317	1.5312392466369	-710.42397096575
0.21000746826857	1.3694956372481	-713.30507135074
0.21086115716397	1.2092734113796	-716.16103561296
0.21171484605937	1.0542275416566	-718.99231844404
0.21256853495477	0.90791166890258	-721.79990776322
0.21342222385017	0.77370064721752	-724.58530482059
0.21427591274557	0.65471673793161	-727.35049309923
0.21512960164097	0.55376106488803	-730.09789665720
0.21598329053637	0.47325183435532	-732.83032878092
0.21683697943177	0.41517068073128	-735.55093203459
0.21769066832718	0.38101832723768	-738.26311098026
0.21854435722258	0.37178055242754	-740.97045900601
0.21939804611798	0.38790523274962	-743.67668083201
0.22025173501338	0.42929099374024	-746.38551236308
0.22110542390878	0.49528775199083	-749.10063961897
0.22195911280418	0.58470917316689	-751.82561849906
0.22281280169958	0.69585681269234	-754.56379712573
0.22366649059498	0.82655545158061	-757.31824246020
0.22452017949038	0.97419889545643	-760.09167279706
0.22537386838578	1.1358052752889	-762.88639762158
0.22622755728118	1.3080806792258	-765.70426615872
0.22708124617658	1.4874897602961	-768.54662575816
0.22793493507198	1.6703318089922	-771.41429105023
0.22878862396738	1.8528206563640	-774.30752457648
0.22964231286279	2.0311666847026	-777.22602935215
0.23049600175819	2.2016591717202	-780.16895356003
0.23134969065359	2.3607471810556	-783.13490731261
0.23220337954899	2.5051172377026	-786.12199115717
0.23305706844439	2.6317660910961	-789.12783574256
0.23391075733979	2.7380669695764	-792.14965182204
0.23476444623519	2.8218278662013	-795.18428953958
0.23561813513059	2.8813405639577	-798.22830574182
0.23647182402599	2.9154193053702	-801.27803787970
0.23732551292139	2.9234282328034	-804.32968291575
0.23817920181679	2.9052969665226	-807.37937953916
0.23903289071219	2.8615239434023	-810.42329191332
0.23988657960759	2.7931674034879	-813.45769314130
0.24074026850299	2.7018241796351	-816.47904663481
0.24159395739839	2.5895967109151	-819.48408361174
0.24244764629380	2.4590489576164	-822.46987502552
0.24330133518920	2.3131521390769	-825.43389634460
0.24415502408460	2.1552214397696	-828.37408375077
0.24500871298000	1.9888450290655	-831.28888050632
0.24586240187540	1.8178069117890	-834.17727244936
0.24671609077080	1.6460052656415	-837.03881180970
0.24756977966620	1.4773680254347	-839.87362878831
0.24842346856160	1.3157675397930	-842.68243060752
0.24927715745700	1.1649361523471	-845.46648801058
0.25013084635240	1.0283845457484	-848.22760946141
0.25098453524780	0.90932463303226	-850.96810356411
0.25183822414320	0.81059868810044	-853.69073047905
0.25269191303860	0.73461627751376	-856.39864335461
0.25354560193400	0.68330039126826	-859.09532101393
0.25439929082941	0.65804397547325	-861.78449333039
0.25525297972481	0.65967784763031	-864.47006088967
0.25610666862021	0.68845073127999	-867.15601066564
0.25696035751561	0.74402188588268	-869.84632953029
0.25781404641101	0.82546653563831	-872.54491747112
0.25866773530641	0.93129402329933	-875.25550240255
0.25952142420181	1.0594783382576	-877.98155842950
0.26037511309721	1.2075003977143	-880.72622935324
0.26122880199261	1.3724012021557	-883.49225910135
0.26208249088801	1.5508447466808	-886.28193061948
0.26293617978341	1.7391893536511	-889.09701458364
0.26378986867881	1.9335659043380	-891.93872908327
0.26464355757421	2.1299612916598	-894.80771119057
0.26549724646961	2.3243052967248	-897.70400107644
0.26635093536501	2.5125590109676	-900.62703906289
0.26720462426042	2.6908028853095	-903.57567572153
0.26805831315582	2.8553224891475	-906.54819484459
0.26891200205122	3.0026901047792	-909.54234883435
0.26976569094662	3.1298403668768	-912.55540578450
0.27061937984202	3.2341382796748	-915.58420727091
0.27147306873742	3.3134381043901	-918.62523563174
0.27232675763282	3.3661318025524	-921.67468930678
0.27318044652822	3.3911859435170	-924.72856462477
0.27403413542362	3.3881662313834	-927.78274228176
0.27488782431902	3.3572490729692	-930.83307664474
0.27574151321442	3.2992198883469	-933.87548594677
0.27659520210982	3.2154581529416	-936.90604141327
0.27744889100522	3.1079094488586	-939.92105337515
0.27830257990062	2.9790450868880	-942.91715248320
0.27915626879603	2.8318101332801	-945.89136423752
0.28000995769143	2.6695609307588	-948.84117518500
0.28086364658683	2.4959934360095	-951.76458931305
0.28171733548223	2.3150639006264	-954.66017337572
0.28257102437763	2.1309035948394	-957.52709012484
0.28342471327303	1.9477294093589	-960.36511867798
0.28427840216843	1.7697522671257	-963.17466153255
0.28513209106383	1.6010853317793	-965.95673802426
0.28598577995923	1.4456540112758	-968.71296432223
0.28683946885463	1.3071097236351	-971.44552034708
0.28769315775003	1.1887493170803	-974.15710428407
0.28854684664543	1.0934419208801	-976.85087563633
0.28940053554083	1.0235648479566	-979.53038801610
0.29025422443623	0.98094997933117	-982.19951310014
0.29110791333163	0.96684183754335	-984.86235737299
0.29196160222704	0.98186830611471	-987.52317344528
0.29281529112244	1.0260246803365	-990.18626785891
0.29366898001784	1.0986714468061	-992.85590737497
0.29452266891324	1.1985458916061	-995.53622578053
0.29537635780864	1.3237873361446	-998.23113324721
0.29623004670404	1.4719755020206	-1000.9442302264
0.29708373559944	1.6401812183207	-1003.6787277746
0.29793742449484	1.8250284128757	-1006.4373760699
0.29879111339024	2.0227660790603	-1009.2224027083
0.29964480228564	2.2293486873801	-1012.0354621619
0.30049849118104	2.4405233211604	-1014.8775975434
0.30135218007644	2.6519216625704	-1017.7492155563
0.30220586897184	2.8591548422369	-1020.6500752286
0.30305955786724	3.0579090956917	-1023.5792907261
0.30391324676264	3.2440401443520	-1026.5353482403
0.30476693565805	3.4136642384519	-1029.5161366342
0.30562062455345	3.5632438641685	-1032.5189912327
0.30647431344885	3.6896662256696	-1035.5407498520
0.30732800234425	3.7903127630430	-1038.5778198933
0.30818169123965	3.8631181556115	-1041.6262550824
0.30903538013505	3.9066174834076	-1044.6818402164
0.30988906903045	3.9199804724956	-1047.7401821017
0.31074275792585	3.9030320272487	-1050.7968047250
0.31159644682125	3.8562585485648	-1053.8472465960
0.31245013571665	3.7807998449453	-1056.8871581488
0.31330382461205	3.6784267567308	-1059.9123970775
0.31415751350745	3.5515049258575	-1062.9191195181
0.31501120240285	3.4029454472466	-1065.9038650717
0.31586489129825	3.2361434269924	-1068.8636337901
0.31671858019366	3.0549057402842	-1071.7959534135
0.31757226908906	2.8633695226426	-1074.6989353540
0.31842595798446	2.6659131363056	-1077.5713181606
0.31927964687986	2.4670615246037	-1080.4124974671
0.32013333577526	2.2713879971838	-1083.2225417168
0.32098702467066	2.0834145750228	-1086.0021932638
