#Parameters = {beta=1; bunch=6; conductivity=10000; l=20; l_pipe=40; nmesh=50; r=10; r_pipe=2; samples=2000; wakelength=400; xbeam=0; xtest=0; ybeam=0; ytest=0}
#"Frequency / GHz"	"Z [Real/Imaginary Part] [Re]"	"Z [Real/Imaginary Part] [Im]"
#-------------------------------------------------------------------------------
0.0000000000000	-2.1743449415111	-4.2572265913672e-11
0.00085368889540069	-2.1660026080937	0.31463685615496
0.0017073777908014	-2.1410340322348	0.62787881713366
0.0025610666862021	-2.0996140821924	0.93834072788397
0.0034147555816028	-2.0420328580897	1.2446568469705
0.0042684444770034	-1.9686936811423	1.5454903866050
0.0051221333724041	-1.8801102975686	1.8395428538949
0.0059758222678048	-1.7769033163940	2.1255631291807
0.0068295111632055	-1.6597959051518	2.4023562188722
0.0076832000586062	-1.5296087728128	2.6687916226769
0.0085368889540069	-1.3872544739973	2.9238112574608
0.0093905778494076	-1.2337310732548	3.1664368830766
0.010244266744808	-1.0701152123692	3.3957769788888
0.011097955640209	-0.89755462804867	3.6110330231514
0.011951644535610	-0.71726017084403	3.8115051317971
0.012805333431010	-0.53049737977320	3.9965970171554
0.013659022326411	-0.33857767005450	4.1658202318952
0.014512711221812	-0.14284919426543	4.3187976682444
0.015366400117212	0.055312560730615	4.4552662875582
0.016220089012613	0.25451437660119	4.5750790605237
0.017073777908014	0.45335504037328	4.6782061036467
0.017927466803414	0.65043514837305	4.7647350030476
0.018781155698815	0.84436690990179	4.8348703222264
0.019634844594216	1.0337838831223	4.8889322958697
0.020488533489617	1.2173505759740	4.9273547174456
0.021342222385017	1.3937718457137	4.9506820337769
0.022195911280418	1.5618020319717	4.9595656652183
0.023049600175819	1.7202537597737	4.9547595754076
0.023903289071219	1.8680063512853	4.9371151197387
0.024756977966620	2.0040137873201	4.9075752066107
0.025610666862021	2.1273121628770	4.8671678104705
0.026464355757421	2.2370265839958	4.8169988799348
0.027318044652822	2.3323774571552	4.7582446887478
0.028171733548223	2.4126861262801	4.6921436811438
0.029025422443623	2.4773798169544	4.6199878668005
0.029879111339024	2.5259958518226	4.5431138238216
0.030732800234425	2.5581851063310	4.4628933710832
0.031586489129825	2.5737146788060	4.3807239735508
0.032440178025226	2.5724697544016	4.2980189464950
0.033293866920627	2.5544546477625	4.2161975257875
0.034147555816028	2.5197930149099	4.1366748728198
0.035001244711428	2.4687272305014	4.0608520832124
0.035854933606829	2.4016169323633	3.9901062685918
0.036708622502230	2.3189367409110	3.9257807805840
0.037562311397630	2.2212731667643	3.8691756453127
0.038416000293031	2.1093207255426	3.8215382756016
0.039269689188432	1.9838772842853	3.7840545263071
0.040123378083832	1.8458386694080	3.7578401561388
0.040977066979233	1.6961925712570	3.7439327567794
0.041830755874634	1.5360117853282	3.7432842070964
0.042684444770034	1.3664468349665	3.7567537067933
0.043538133665435	1.1887180248134	3.7851014402135
0.044391822560836	1.0041069783597	3.8289829166688
0.045245511456236	0.81394771685605	3.8889440293074
0.046099200351637	0.61961734012889	3.9654168697185
0.046952889247038	0.42252637297684	4.0587163303460
0.047806578142439	0.22410884330045	4.1690375214876
0.048660267037839	0.025812160440967	4.2964540241714
0.049513955933240	-0.17091313633846	4.4409169943909
0.050367644828641	-0.36462368778569	4.6022551284515
0.051221333724041	-0.55389361113379	4.7801754931501
0.052075022619442	-0.73732471072360	4.9742652185223
0.052928711514843	-0.91355653083045	5.1839940449813
0.053782400410243	-1.0812761794003	5.4087177105022
0.054636089305644	-1.2392278527229	5.6476821577154
0.055489778201045	-1.3862219927087	5.9000285349198
0.056343467096445	-1.5211440107991	6.1647989593258
0.057197155991846	-1.6429625150651	6.4409430053814
0.058050844887247	-1.7507369804010	6.7273248757487
0.058904533782647	-1.8436248051263	7.0227312075430
0.059758222678048	-1.9208877013788	7.3258794616949
0.060611911573449	-1.9818973711062	7.6354268389990
0.061465600468850	-2.0261404242163	7.9499796623495
0.062319289364250	-2.0532225004043	8.2681031611150
0.063172978259651	-2.0628715617275	8.5883315904335
0.064026667155052	-2.0549403286155	8.9091786154408
0.064880356050452	-2.0294078377167	9.2291478882392
0.065734044945853	-1.9863801062500	9.5467437436134
0.066587733841254	-1.9260898936649	9.8604819383333
0.067441422736654	-1.8488955576421	10.168900357999
0.068295111632055	-1.7552790079670	10.470569615319
0.069148800527456	-1.6458427681174	10.764103463976
0.070002489422856	-1.5213061607995	11.048168953085
0.070856178318257	-1.3825006399458	11.321496248692
0.071709867213658	-1.2303642978773	11.582888050594
0.072563556109058	-1.0659355823019	11.831228535340
0.073417245004459	-0.89034626371130	12.065491759053
0.074270933899860	-0.70481369919504	12.284749457268
0.075124622795261	-0.51063244406920	12.488178182830
0.075978311690661	-0.30916526756501	12.675065727230
0.076832000586062	-0.10183363349158	12.844816775525
0.077685689481463	0.10989228906367	12.996957750145
0.078539378376863	0.32450401622915	13.131140804359
0.079393067272264	0.54046546887607	13.247146932006
0.080246756167665	0.75622394632096	13.344888166171
0.081100445063065	0.97022127697172	13.424408845815
0.081954133958466	1.1809050670170	13.485885935925
0.082807822853867	1.3867399669453	13.529628393348
0.083661511749267	1.5862188751375	13.556075577312
0.084515200644668	1.7778739976463	13.565794710443
0.085368889540069	1.9602876837724	13.559477402931
0.086222578435470	2.1321029581876	13.537935259257
0.087076267330870	2.2920336719264	13.502094593670
0.087929956226271	2.4388741968703	13.452990287124
0.088783645121672	2.5715085910582	13.391758824753
0.089637334017072	2.6889191655470	13.319630559172
0.090491022912473	2.7901943873107	13.237921250709
0.091344711807874	2.8745360570661	13.148022941233
0.092198400703274	2.9412657056979	13.051394223458
0.093052089598675	2.9898301582090	12.949549972315
0.093905778494076	3.0198062197696	12.844050609382
0.094759467389476	3.0309044444943	12.736490975177
0.095613156284877	3.0229719539035	12.628488887463
0.096466845180278	2.9959942786748	12.521673466546
0.097320534075678	2.9500962041807	12.417673310761
0.098174222971079	2.8855416073768	12.318104607013
0.099027911866480	2.8027322798318	12.224559262298
0.099881600761881	2.7022057389718	12.138593142576
0.10073528965728	2.5846320370323	12.061714505177
0.10158897855268	2.4508095844513	11.995372710146
0.10244266744808	2.3016600118061	11.940947294467
0.10329635634348	2.1382221015110	11.899737491097
0.10415004523888	1.9616448274389	11.872952272071
0.10500373413428	1.7731795474807	11.861700991651
0.10585742302969	1.5741714004443	11.866984701732
0.10671111192509	1.3660499649535	11.889688207265
0.10756480082049	1.1503192436695	11.930572924556
0.10841848971589	0.92854704170297	11.990270599953
0.10927217861129	0.70235381280479	12.069277940473
0.11012586750669	0.47340105151368	12.167952201661
0.11097955640209	0.24337931317256	12.286507771365
0.11183324529749	0.013995947152784	12.425013780998
0.11268693419289	-0.21303736876217	12.583392768634
0.11354062308829	-0.43601720271063	12.761420410759
0.11439431198369	-0.65326096030279	12.958726331760
0.11524800087909	-0.86311940103651	13.174795992412
0.11610168977449	-1.0639889871654	13.408973650735
0.11695537866989	-1.2543239731410	13.660466380639
0.11780906756529	-1.4326481449740	13.928349125941
0.11866275646070	-1.5975661208148	14.211570759533
0.11951644535610	-1.7477741265939	14.508961109877
0.12037013425150	-1.8820701638160	14.819238909652
0.12122382314690	-1.9993634904930	15.141020614171
0.12207751204230	-2.0986833406285	15.472830030516
0.12293120093770	-2.1791868127889	15.813108691806
0.12378488983310	-2.2401658638809	16.160226905169
0.12463857872850	-2.2810533504105	16.512495396366
0.12549226762390	-2.3014280660916	16.868177469162
0.12634595651930	-2.3010187317098	17.225501593056
0.12719964541470	-2.2797069005902	17.582674329224
0.12805333431010	-2.2375287507284	17.937893501351
0.12890702320550	-2.1746757427076	18.289361515535
0.12976071210090	-2.0914941307399	18.635298731641
0.13061440099631	-1.9884833225675	18.973956787380
0.13146808989171	-1.8662930924920	19.303631775999
0.13232177878711	-1.7257196602893	19.622677178874
0.13317546768251	-1.5677006573012	19.929516455303
0.13402915657791	-1.3933090094123	20.222655193711
0.13488284547331	-1.2037457748568	20.500692730971
0.13573653436871	-1.0003319828717	20.762333149815
0.13659022326411	-0.78449952696916	21.006395568302
0.13744391215951	-0.55778117401261	21.231823639894
0.13829760105491	-0.32179975733581	21.437694187990
0.13915128995031	-0.078256628706872	21.623224904655
0.14000497884571	0.17108054998976	21.787781049693
0.14085866774111	0.42439058896354	21.930881093238
0.14171235663651	0.67981203529717	22.052201252466
0.14256604553191	0.93545682472969	22.151578880908
0.14341973442732	1.1894242212613	22.229014677114
0.14427342332272	1.4398149425181	22.284673687985
0.14512711221812	1.6847453666892	22.318885090898
0.14598080111352	1.9223617154515	22.332140747763
0.14683449000892	2.1508541067099	22.325092533280
0.14768817890432	2.3684703711683	22.298548448856
0.14854186779972	2.5735295277199	22.253467542787
0.14939555669512	2.7644348144487	22.190953666432
0.15024924559052	2.9396861745626	22.112248105013
0.15110293448592	3.0978920999702	22.018721130405
0.15195662338132	3.2377807392495	21.911862531704
0.15281031227672	3.3582101816442	21.793271187452
0.15366400117212	3.4581778342076	21.664643751023
0.15451769006752	3.5368288154332	21.527762527896
0.15537137896293	3.5934632955240	21.384482630172
0.15622506785833	3.6275427208454	21.236718499726
0.15707875675373	3.6386948680370	21.086429896861
0.15793244564913	3.6267176816506	20.935607455980
0.15878613454453	3.5915818580005	20.786257913880
0.15963982343993	3.5334321470414	20.640389119446
0.16049351233533	3.4525873535778	20.499994935996
0.16134720123073	3.3495390287144	20.367040149158
0.16220089012613	3.2249488522910	20.243445493937
0.16305457902153	3.0796447168952	20.131072914563
0.16390826791693	2.9146155339175	20.031711169790
0.16476195681233	2.7310047919088	19.947061894566
0.16561564570773	2.5301029071096	19.878726226305
0.16646933460313	2.3133384154571	19.828192100594
0.16732302349853	2.0822680644590	19.796822316810
0.16817671239394	1.8385658720748	19.785843469119
0.16903040128934	1.5840112280278	19.796335832406
0.16988409018474	1.3204761207679	19.829224286200
0.17073777908014	1.0499115805162	19.885270352365
0.17159146797554	0.77433343541741	19.965065414467
0.17244515687094	0.49580748372316	20.069025178315
0.17329884576634	0.21643419010553	20.197385424154
0.17415253466174	-0.061666981411568	20.350199091644
0.17500622355714	-0.33637348185902	20.527334728893
0.17585991245254	-0.60557572027188	20.728476326794
0.17671360134794	-0.86719311459757	20.953124549452
0.17756729024334	-1.1191900289896	21.200599361119
0.17842097913874	-1.3595914759407	21.470044039355
0.17927466803414	-1.5864984625850	21.760430553583
0.18012835692955	-1.7981028623302	22.070566277728
0.18098204582495	-1.9927016957282	22.399101995201
0.18183573472035	-2.1687107081440	22.744541144463
0.18268942361575	-2.3246771362949	23.105250243504
0.18354311251115	-2.4592915611380	23.479470422280
0.18439680140655	-2.5713987507694	23.865329983114
0.18525049030195	-2.6600074040051	24.260857900767
0.18610417919735	-2.7242987130031	24.663998166015
0.18695786809275	-2.7636336717194	25.072624869532
0.18781155698815	-2.7775590659691	25.484557916470
0.18866524588355	-2.7658120904791	25.897579256528
0.18951893477895	-2.7283235483469	26.309449509577
0.19037262367435	-2.6652195988259	26.717924863024
0.19122631256975	-2.5768220301534	27.120774114130
0.19208000146515	-2.4636470452313	27.515795728504
0.19293369036056	-2.3264025592001	27.900834784942
0.19378737925596	-2.1659840193096	28.273799676711
0.19464106815136	-1.9834687688126	28.632678440330
0.19549475704676	-1.7801089878951	28.975554584807
0.19634844594216	-1.5573232557366	29.300622297196
0.19720213483756	-1.3166867886371	29.606200904237
0.19805582373296	-1.0599204196582	29.890748474646
0.19890951262836	-0.78887839528601	30.152874452375
0.19976320152376	-0.50553507421586	30.391351217797
0.20061689041916	-0.21197062234320	30.605124481220
0.20147057931456	0.089644193619301	30.793322421387
0.20232426820996	0.39706400384898	30.955263490613
0.20317795710536	0.70798550757315	31.090462817826
0.20403164600076	1.0200646968314	31.198637151058
0.20488533489617	1.3309345038810	31.279708291653
0.20573902379157	1.6382227401707	31.333804983721
0.20659271268697	1.9395701916187	31.361263233873
0.20744640158237	2.2326487328064	31.362625048194
0.20830009047777	2.5151793215701	31.338635585367
0.20915377937317	2.7849497354285	31.290238737052
0.21000746826857	3.0398319122910	31.218571158714
0.21086115716397	3.2777987599586	31.124954786160
0.21171484605937	3.4969403020524	31.010887884890
0.21256853495477	3.6954790321796	30.878034690950
0.21342222385017	3.8717843533110	30.728213713197
0.21427591274557	4.0243859855219	30.563384777637
0.21512960164097	4.1519862323361	30.385634904715
0.21598329053637	4.2534710039260	30.197163120040
0.21683697943177	4.3279195042460	30.000264307884
0.21769066832718	4.3746124988040	29.797312224948
0.21854435722258	4.3930390900966	29.590741799119
0.21939804611798	4.3829019386873	29.383030844320
0.22025173501338	4.3441208794451	29.176681327933
0.22110542390878	4.2768348944142	28.974200331685
0.22195911280418	4.1814024161965	28.778080850182
0.22281280169958	4.0583999483413	28.590782573556
0.22366649059498	3.9086190021335	28.414712801784
0.22452017949038	3.7330613620865	28.252207638287
0.22537386838578	3.5329327054084	28.105513609230
0.22622755728118	3.3096346135500	27.976769852720
0.22708124617658	3.0647550265817	27.867991018677
0.22793493507198	2.8000572034812	27.781051015651
0.22878862396738	2.5174672633660	27.717667735268
0.22964231286279	2.2190603941252	27.679388878364
0.23049600175819	1.9070458257926	27.667578999193
0.23134969065359	1.5837506761625	27.683407875557
0.23220337954899	1.2516027855880	27.727840303159
0.23305706844439	0.91311266648620	27.801627402222
0.23391075733979	0.57085470076034	27.905299513332
0.23476444623519	0.22744772504807	28.039160747727
0.23561813513059	-0.11446485061916	28.203285244946
0.23647182402599	-0.45223524057052	28.397515177943
0.23732551292139	-0.78323164403358	28.621460532535
0.23817920181679	-1.1048586125276	28.874500674570
0.23903289071219	-1.4145772670744	29.155787704470
0.23988657960759	-1.7099252082834	29.464251585018
0.24074026850299	-1.9885359637018	29.798607014453
0.24159395739839	-2.2481578193054	30.157362003282
0.24244764629380	-2.4866718857708	30.538828099775
0.24330133518920	-2.7021092550607	30.941132195989
0.24415502408460	-2.8926671088987	31.362229833518
0.24500871298000	-3.0567236479119	31.799919916004
0.24586240187540	-3.1928517184278	32.251860723969
0.24671609077080	-3.2998310231737	32.715587116754
0.24756977966620	-3.3766588123042	33.188528796379
0.24842346856160	-3.4225589622559	33.668029499133
0.24927715745700	-3.4369893617691	34.151366972573
0.25013084635240	-3.4196475369801	34.635773588634
0.25098453524780	-3.3704744606656	35.118457437614
0.25183822414320	-3.2896565043936	35.596623743028
0.25269191303860	-3.1776255064490	36.067496433811
0.25354560193400	-3.0350569428087	36.528339708011
0.25439929082941	-2.8628662030267	36.976479421109
0.25525297972481	-2.6622029876081	37.409324132314
0.25610666862021	-2.4344438580798	37.824385643781
0.25696035751561	-2.1811829855005	38.219298870477
0.25781404641101	-1.9042211574139	38.591840882577
0.25866773530641	-1.6055531171290	38.939948967621
0.25952142420181	-1.2873533226319	39.261737566247
0.26037511309721	-0.95196022525880	39.555513943097
0.26122880199261	-0.60185918039201	39.819792463379
0.26208249088801	-0.23966411378773	40.053307355519
0.26293617978341	0.13190192239898	40.255023851318
0.26378986867881	0.51002716031763	40.424147606859
0.26464355757421	0.89183234186623	40.560132320150
0.26549724646961	1.2743925995502	40.662685474906
0.26635093536501	1.6547598273026	40.731772153948
0.26720462426042	2.0299853709470	40.767616880337
0.26805831315582	2.3971428643617	40.770703459345
0.26891200205122	2.7533510351680	40.741772809755
0.26976569094662	3.0957963028275	40.681818788497
0.27061937984202	3.4217549925078	40.592082028225
0.27147306873742	3.7286149899023	40.474041823014
0.27232675763282	4.0138966654008	40.329406112741
0.27318044652822	4.2752729005597	40.160099631801
0.27403413542362	4.5105880557224	39.968250302511
0.27488782431902	4.7178757248091	39.756173967704
0.27574151321442	4.8953751317388	39.526357570526
0.27659520210982	5.0415460325438	39.281440902243
0.27744889100522	5.1550819979878	39.024197050746
0.27830257990062	5.2349219632703	38.757511693411
0.27915626879603	5.2802599441474	38.484361387891
0.28000995769143	5.2905528324012	38.207791023186
0.28086364658683	5.2655261979750	37.930890600918
0.28171733548223	5.2051780401147	37.656771523048
0.28257102437763	5.1097804454514	37.388542567221
0.28342471327303	4.9798791269653	37.129285734551
0.28427840216843	4.8162908340988	36.882032156809
0.28513209106383	4.6200986407812	36.649738250733
0.28598577995923	4.3926451346905	36.435262306429
0.28683946885463	4.1355235475646	36.241341694699
0.28769315775003	3.8505668826487	36.070570874438
0.28854684664543	3.5398351113243	35.925380376214
0.28940053554083	3.2056005264492	35.808016931648
0.29025422443623	2.8503313548590	35.720524910377
0.29110791333163	2.4766737456845	35.664729217220
0.29196160222704	2.0874322645284	35.642219791783
0.29281529112244	1.6855490360223	35.654337841147
0.29366898001784	1.2740816887042	35.702163923616
0.29452266891324	0.85618026647917	35.786507987826
0.29537635780864	0.43506328000922	35.907901456948
0.29623004670404	0.013993079184921	36.066591432344
0.29708373559944	-0.40374926573003	36.262537074986
0.29793742449484	-0.81488938168107	36.495408206349
0.29879111339024	-1.2161851129771	36.764586153438
0.29964480228564	-1.6044519458297	37.069166845287
0.30049849118104	-1.9765881385835	37.407966150743
0.30135218007644	-2.3295993599886	37.779527429817
0.30220586897184	-2.6606226404532	38.182131253436
0.30305955786724	-2.9669494453518	38.613807229256
0.30391324676265	-3.2460476851099	39.072347854340
0.30476693565805	-3.4955824839102	39.555324299233
0.30562062455345	-3.7134355374484	40.060104012279
0.30647431344885	-3.8977229000905	40.583870018122
0.30732800234425	-4.0468110530598	41.123641770338
0.30818169123965	-4.1593311177531	41.676297405127
0.30903538013505	-4.2341910919232	42.238597231108
0.30988906903045	-4.2705860011231	42.807208279574
0.31074275792585	-4.2680058734190	43.378729730203
0.31159644682125	-4.2262414617935	43.949719019207
0.31245013571665	-4.1453876557766	44.516718430403
0.31330382461205	-4.0258445415208	45.076281964641
0.31415751350745	-3.8683160876477	45.625002279598
0.31501120240285	-3.6738064525958	46.159537490112
0.31586489129825	-3.4436139277474	46.676637618977
0.31671858019366	-3.1793225491729	47.173170489598
0.31757226908906	-2.8827914292436	47.646146854924
0.31842595798446	-2.5561418775024	48.092744561804
0.31927964687986	-2.2017423978752	48.510331556174
0.32013333577526	-1.8221916664523	48.896487542364
0.32098702467066	-1.4202996104834	49.249024119160
0.32184071356606	-0.99906672482355	49.566003226061
0.32269440246146	-0.56166177668386	49.845753745371
0.32354809135686	-0.11139806306607	50.086886119206
0.32440178025226	0.34829160240499	50.288304855156
0.32525546914766	0.81388098552050	50.449218810074
0.32610915804306	1.2817774130404	50.569149158155
0.32696284693846	1.7483494342647	50.647934966983
0.32781653583386	2.2099549505487	50.685736323484
