#Parameters = {beta=0.8; bunch=4.8; conductivity=10000; l=20; l_pipe=40; nmesh=50; r=10; r_pipe=2; samples=2000; wakelength=400; xbeam=0; xtest=0; ybeam=0; ytest=0}
#"Frequency / GHz"	"Z (beta=0.8) [Real/Imaginary Part] [Re]"	"Z (beta=0.8) [Real/Imaginary Part] [Im]"
#-----------------------------------------------------------------------------------------------------
0.0000000000000	-3.7701632675217	-2.7670351452449e-11
0.00085368889540069	-3.7455073082822	-0.39800434323674
0.0017073777908014	-3.6718491113261	-0.80152092700479
0.0025610666862021	-3.5501138174132	-1.2159925865907
0.0034147555816028	-3.3818303718222	-1.6467242211086
0.0042684444770034	-3.1691122619503	-2.0988160006845
0.0051221333724041	-2.9146308904001	-2.5770991532424
0.0059758222678048	-2.6215819192281	-3.0860751398607
0.0068295111632055	-2.2936450092660	-3.6298589851960
0.0076832000586062	-1.9349374618759	-4.2121274772564
0.0085368889540069	-1.5499623469446	-4.8360728887865
0.0093905778494076	-1.1435517711058	-5.5043628039457
0.010244266744808	-0.72080600049969	-6.2191065563169
0.011097955640209	-0.28702920544093	-6.9818287010655
0.011951644535610	0.15233736343675	-7.7934498561258
0.012805333431010	0.59178392578407	-8.6542751533726
0.013659022326411	1.0258015848032	-9.5639904459563
0.014512711221812	1.4489517285388	-10.521666319348
0.015366400117212	1.8559345449854	-11.525769855995
0.016220089012613	2.2416557870027	-12.574184005425
0.017073777908014	2.6012909460428	-13.664234315917
0.017927466803414	2.9303460257361	-14.792722690948
0.018781155698815	3.2247141494059	-15.955967745466
0.019634844594216	3.4807272875983	-17.149851253406
0.020488533489617	3.6952024541896	-18.369870101271
0.021342222385017	3.8654817878964	-19.611193093458
0.022195911280418	3.9894660143586	-20.868721893166
0.023049600175819	4.0656408662751	-22.137155331393
0.023903289071219	4.0930961285952	-23.411056273369
0.024756977966620	4.0715370680806	-24.684920199604
0.025610666862021	4.0012881029291	-25.953244637653
0.026464355757421	3.8832886656430	-27.210598568859
0.027318044652822	3.7190813109003	-28.451690935600
0.028171733548223	3.5107922176697	-29.671437385164
0.029025422443623	3.2611043311139	-30.865024408844
0.029879111339024	2.9732234820683	-32.027970067314
0.030732800234425	2.6508379108268	-33.156180536778
0.031586489129825	2.2980717048776	-34.246001762166
0.032440178025226	1.9194327374217	-35.294265566426
0.033293866920627	1.5197557619664	-36.298329633270
0.034147555816028	1.1041413807390	-37.256110859397
0.035001244711428	0.67789165544137	-38.166111654495
0.035854933606829	0.24644317225576	-39.027438856997
0.036708622502230	-0.18470159548877	-39.839815026062
0.037562311397630	-0.61004376129180	-40.603581966702
0.038416000293031	-1.0241574606516	-41.319696442524
0.039269689188432	-1.4217583713691	-41.989718129302
0.040123378083832	-1.7977704549831	-42.615789960145
0.040977066979233	-2.1473900775747	-43.200611109303
0.041830755874634	-2.4661467007409	-43.747402954111
0.042684444770034	-2.7499593768301	-44.259868443313
0.043538133665435	-2.9951883355634	-44.742145383320
0.044391822560836	-3.1986810103301	-45.198754230566
0.045245511456236	-3.3578119230480	-45.634541047318
0.046099200351637	-3.4705159233152	-46.054616339922
0.046952889247038	-3.5353143616315	-46.464290549883
0.047806578142439	-3.5513338650915	-46.869007010969
0.048660267037839	-3.5183174776227	-47.274273217509
0.049513955933240	-3.4366280225062	-47.685591270263
0.050367644828641	-3.3072436434100	-48.108388377382
0.051221333724041	-3.1317455785877	-48.547948286727
0.052075022619442	-2.9122983206317	-49.009344514976
0.052928711514843	-2.6516224107045	-49.497376215896
0.053782400410243	-2.3529602085375	-50.016507497469
0.054636089305644	-2.0200350683724	-50.570810954156
0.055489778201045	-1.6570044346066	-51.163916127452
0.056343467096445	-1.2684074468731	-51.798963546290
0.057197155991846	-0.85910771457250	-52.478564928248
0.058050844887247	-0.43423198120438	-53.204770045175
0.058904533782647	0.00089454847697746	-53.979040673177
0.059758222678048	0.44081540391694	-54.802231957168
0.060611911573449	0.88001171944484	-55.674581427342
0.061465600468850	1.3129719121003	-56.595705807977
0.062319289364250	1.7342612876588	-57.564605661388
0.063172978259651	2.1385906968034	-58.579677810343
0.064026667155052	2.5208833749749	-59.638735384841
0.064880356050452	2.8763391221818	-60.739035242384
0.065734044945853	3.2004950122307	-61.877312418258
0.066587733841254	3.4892818644702	-63.049821173426
0.067441422736654	3.7390757641112	-64.252382124092
0.068295111632055	3.9467439797911	-65.480434860563
0.069148800527456	4.1096846968751	-66.729095393296
0.070002489422856	4.2258600636460	-67.993217702956
0.070856178318257	4.2938221305901	-69.267458619544
0.071709867213658	4.3127313535461	-70.546345213098
0.072563556109058	4.2823674243879	-71.824343846701
0.073417245004459	4.2031322899264	-73.095930021295
0.074270933899860	4.0760453180076	-74.355658131297
0.075124622795261	3.9027306690401	-75.598230251076
0.075978311690661	3.6853970291052	-76.818563084002
0.076832000586062	3.4268099576396	-78.011852228824
0.077685689481463	3.1302571954992	-79.173632951498
0.078539378376863	2.7995073684906	-80.299836694396
0.079393067272264	2.4387626045279	-81.386842608257
0.080246756167665	2.0526056599284	-82.431523454806
0.081100445063065	1.6459422195226	-83.431285298546
0.081954133958466	1.2239390965800	-84.384100484389
0.082807822853867	0.79195911045664	-85.288533482331
0.083661511749267	0.35549346218980	-86.143759270023
0.084515200644668	-0.079907539926711	-86.949574018015
0.085368889540069	-0.50870453157264	-87.706397939775
0.086222578435470	-0.92543903692633	-88.415270266683
0.087076267330870	-1.3248024240881	-89.077836408213
0.087929956226271	-1.7017030010069	-89.696327455568
0.088783645121672	-2.0513304045101	-90.273532283863
0.089637334017072	-2.3692164689535	-90.812762601497
0.090491022912473	-2.6512918048623	-91.317811384180
0.091344711807874	-2.8939373717198	-91.792905215005
0.092198400703274	-3.0940303919411	-92.242651128910
0.093052089598675	-3.2489840239825	-92.671978629420
0.093905778494076	-3.3567802910703	-93.086077606889
0.094759467389476	-3.4159958467334	-93.490332939387
0.095613156284877	-3.4258202485589	-93.890256599683
0.096466845180278	-3.3860665058796	-94.291418123617
0.097320534075678	-3.2971737642878	-94.699374316144
0.098174222971079	-3.1602020891744	-95.119599081589
0.099027911866480	-2.9768194099887	-95.557414263394
0.099881600761881	-2.7492807857048	-96.017922366336
0.10073528965728	-2.4804002491991	-96.505942011114
0.10158897855268	-2.1735155816502	-97.025946936932
0.10244266744808	-1.8324464575630	-97.582009323624
0.10329635634348	-1.4614464849415	-98.177748150661
0.10415004523888	-1.0651497421946	-98.816283247296
0.10500373413428	-0.64851248326796	-99.500195616767
0.10585742302969	-0.21675074377125	-100.23149453849
0.10671111192509	0.22472536710864	-101.01159186724
0.10756480082049	0.67037986185068	-101.84128385754
0.10841848971589	1.1146206979865	-102.72074074691
0.10927217861129	1.5518703498231	-103.64950423398
0.11012586750669	1.9766362384725	-104.62649288768
0.11097955640209	2.3835801316895	-105.65001542413
0.11183324529749	2.7675856373272	-106.71779168837
0.11268693419289	3.1238229377684	-107.82698108074
0.11354062308829	3.4478099469764	-108.97421807388
0.11439431198369	3.7354691164834	-110.15565437655
0.11524800087909	3.9831791709772	-111.36700721641
0.11610168977449	4.1878211176549	-112.60361313644
0.11695537866989	4.3468179453063	-113.86048662975
0.11780906756529	4.4581675083690	-115.13238287605
0.11866275646070	4.5204681767731	-116.41386379099
0.11951644535610	4.5329369233260	-117.69936655709
0.12037013425150	4.4954196156437	-118.98327377343
0.12122382314690	4.4083933776865	-120.25998434008
0.12207751204230	4.2729609859572	-121.52398418338
0.12293120093770	4.0908373658421	-122.76991593000
0.12378488983310	3.8643283531319	-123.99264664974
0.12463857872850	3.5963019836114	-125.18733281143
0.12549226762390	3.2901526678280	-126.34948163039
0.12634595651930	2.9497586981951	-127.47500803125
0.12719964541470	2.5794336199818	-128.56028650431
0.12805333431010	2.1838720754274	-129.60219719786
0.12890702320550	1.7680908004255	-130.59816566094
0.12976071210090	1.3373655147489	-131.54619573077
0.13061440099631	0.89716449906552	-132.44489514501
0.13146808989171	0.45307969446586	-133.29349355077
0.13232177878711	0.010756191917812	-134.09185267763
0.13317546768251	-0.42417899997176	-134.84046854081
0.13402915657791	-0.84618801073400	-135.54046564087
0.13488284547331	-1.2498920908028	-136.19358322733
0.13573653436871	-1.6301396376322	-136.80215379376
0.13659022326411	-1.9820714054950	-137.36907406984
0.13744391215951	-2.3011820742363	-137.89776887084
0.13829760105491	-2.5833773975171	-138.39214825526
0.13915128995031	-2.8250262062472	-138.85655852605
0.14000497884571	-3.0230066073441	-139.29572768906
0.14085866774111	-3.1747457904738	-139.71470605227
0.14171235663651	-3.2782529357600	-140.11880271193
0.14256604553191	-3.3321448019945	-140.51351872326
0.14341973442732	-3.3356636668495	-140.90447779652
0.14427342332272	-3.2886873868189	-141.29735539080
0.14512711221812	-3.1917314437974	-141.69780709863
0.14598080111352	-3.0459429461421	-142.11139722461
0.14683449000892	-2.8530866535452	-142.54352845896
0.14768817890432	-2.6155231956140	-142.99937353428
0.14854186779972	-2.3361797527015	-143.48380972917
0.14939555669512	-2.0185135627829	-144.00135704744
0.15024924559052	-1.6664687088864	-144.55612085561
0.15110293448592	-1.2844267267913	-145.15173970617
0.15195662338132	-0.87715165100930	-145.79133900906
0.15281031227672	-0.44973018768025	-146.47749114064
0.15366400117212	-0.0075077651626691	-147.21218249877
0.15451769006752	0.44397873443668	-147.99678792549
0.15537137896293	0.89907071692115	-148.83205282607
0.15622506785833	1.3520592131403	-149.71808321659
0.15707875675373	1.7972569129525	-150.65434383243
0.15793244564913	2.2290699879253	-151.63966432820
0.15878613454453	2.6420687964511	-152.67225349816
0.15963982343993	3.0310565783574	-153.74972134444
0.16049351233533	3.3911352706341	-154.86910872160
0.16134720123073	3.7177676114411	-156.02692419016
0.16220089012613	4.0068347456647	-157.21918762051
0.16305457902153	4.2546886013256	-158.44148000307
0.16390826791693	4.4581983714109	-159.68899884192
0.16476195681233	4.6147905094560	-160.95661843794
0.16561564570773	4.7224817285195	-162.23895430547
0.16646933460313	4.7799045808741	-163.53043091352
0.16732302349853	4.7863252889987	-164.82535190003
0.16817671239394	4.7416535958369	-166.11797187549
0.16903040128934	4.6464445027233	-167.40256891175
0.16988409018474	4.5018918655617	-168.67351680203
0.17073777908014	4.3098139224915	-169.92535618036
0.17159146797554	4.0726309280646	-171.15286360219
0.17244515687094	3.7933351687409	-172.35111771271
0.17329884576634	3.4754537307196	-173.51556166557
0.17415253466174	3.1230044829946	-174.64206100072
0.17500622355714	2.7404458244492	-175.72695624719
0.17585991245254	2.3326208229773	-176.76710958188
0.17671360134794	1.9046964459623	-177.75994495030
0.17756729024334	1.4620986440027	-178.70348113652
0.17842097913874	1.0104441027723	-179.59635735852
0.17927466803414	0.55546952080740	-180.43785105859
0.18012835692955	0.10295930290519	-181.22788765679
0.18098204582495	-0.34132742018094	-181.96704213642
0.18183573472035	-0.77172952579698	-182.65653243352
0.18268942361575	-1.1827554693314	-183.29820470551
0.18354311251115	-1.5691527860434	-183.89451065674
0.18439680140655	-1.9259746458603	-184.44847719911
0.18525049030195	-2.2486426186069	-184.96366882255
0.18610417919735	-2.5330048539614	-185.44414314291
0.18695786809275	-2.7753889375551	-185.89440018091
0.18781155698815	-2.9726487509100	-186.31932600569
0.18866524588355	-3.1222047379505	-186.72413144806
0.18951893477895	-3.2220770632482	-187.11428665158
0.19037262367435	-3.2709112363476	-187.49545228269
0.19122631256975	-3.2679958710273	-187.87340826434
0.19208000146515	-3.2132723472561	-188.25398092952
0.19293369036056	-3.1073362453790	-188.64296951189
0.19378737925596	-2.9514305257743	-189.04607290045
0.19464106815136	-2.7474305312429	-189.46881758215
0.19549475704676	-2.4978209926120	-189.91648768309
0.19634844594216	-2.2056653190168	-190.39405799283
0.19720213483756	-1.8745675520437	-190.90613082018
0.19805582373296	-1.5086274556756	-191.45687748095
0.19890951262836	-1.1123893011817	-192.04998516106
0.19976320152376	-0.69078498615664	-192.68860983102
0.20061689041916	-0.24907219905192	-193.37533581262
0.20147057931456	0.20723159618458	-194.11214251496
0.20232426820996	0.67241852716040	-194.90037876761
0.20317795710536	1.1406621604696	-195.74074508302
0.20403164600076	1.6060909258445	-196.63328408081
0.20488533489617	2.0628621926014	-197.57737920384
0.20573902379157	2.5052360645553	-198.57176175162
0.20659271268697	2.9276479622138	-199.61452615180
0.20744640158237	3.3247790752025	-200.70315328620
0.20830009047777	3.6916237937446	-201.83454158660
0.20915377937317	4.0235532650723	-203.00504551667
0.21000746826857	4.3163742685702	-204.21052096311
0.21086115716397	4.5663826615006	-205.44637697152
0.21171484605937	4.7704107148361	-206.70763318140
0.21256853495477	4.9258677349174	-207.98898224269
0.21342222385017	5.0307734506761	-209.28485643199
0.21427591274557	5.0837837367365	-210.58949763319
0.21512960164097	5.0842083388968	-211.89702980366
0.21598329053637	5.0320203689015	-213.20153301467
0.21683697943177	4.9278574389813	-214.49711813395
0.21769066832718	4.7730144118779	-215.77800120907
0.21854435722258	4.5694278477776	-217.03857661284
0.21939804611798	4.3196523343746	-218.27348802665
0.22025173501338	4.0268289888907	-219.47769636352
0.22110542390878	3.6946465198977	-220.64654377044
0.22195911280418	3.3272953311066	-221.77581289782
0.22281280169958	2.9294152376176	-222.86178068256
0.22366649059498	2.5060374463486	-223.90126595952
0.22452017949038	2.0625215255124	-224.89167029330
0.22537386838578	1.6044881520625	-225.83101150675
0.22622755728118	1.1377484802732	-226.71794947427
0.22708124617658	0.66823101825042	-227.55180384483
0.22793493507198	0.20190693169115	-228.33256346113
0.22878862396738	-0.25528528476680	-229.06088734561
0.22964231286279	-0.69751481917833	-229.73809723029
0.23049600175819	-1.1191322902223	-230.36616171396
0.23134969065359	-1.5147412995270	-230.94767223596
0.23220337954899	-1.8792668829563	-231.48581115922
0.23305706844439	-2.2080199934178	-231.98431235517
0.23391075733979	-2.4967571966503	-232.44741477793
0.23476444623519	-2.7417348207803	-232.87980960467
0.23561813513059	-2.9397568694012	-233.28658160035
0.23647182402599	-3.0882160856691	-233.67314543923
0.23732551292139	-3.1851276404924	-234.04517777981
0.23817920181679	-3.2291550102002	-234.40854594447
0.23903289071219	-3.2196277070135	-234.76923409901
0.23988657960759	-3.1565506279314	-235.13326786018
0.24074026850299	-3.0406048930168	-235.50663828000
0.24159395739839	-2.8731401512319	-235.89522616502
0.24244764629380	-2.6561584395197	-236.30472768568
0.24330133518920	-2.3922897874721	-236.74058221590
0.24415502408460	-2.0847598642449	-237.20790331606
0.24500871298000	-1.7373500651486	-237.71141373439
0.24586240187540	-1.3543505311901	-238.25538525203
0.24671609077080	-0.94050668463692	-238.84358413705
0.24756977966620	-0.50095994621647	-239.47922290342
0.24842346856160	-0.041183373827488	-240.16491899170
0.24927715745700	0.43308697228575	-240.90266090248
0.25013084635240	0.91592407798532	-241.69378221982
0.25098453524780	1.4012845331731	-242.53894386327
0.25183822414320	1.8830846621530	-243.43812480386
0.25269191303860	2.3552772682847	-244.39062137278
0.25354560193400	2.8119280256650	-245.39505518350
0.25439929082941	3.2472905537350	-246.44938957944
0.25525297972481	3.6558792259283	-247.55095441174
0.25610666862021	4.0325387907294	-248.69647884608
0.25696035751561	4.3725099224277	-249.88213179636
0.25781404641101	4.6714898689033	-251.10356948576
0.25866773530641	4.9256874244556	-252.35598954542
0.25952142420181	5.1318715261206	-253.63419097779
0.26037511309721	5.2874128513369	-254.93263923643
0.26122880199261	5.3903178821993	-256.24553560882
0.26208249088801	5.4392549957260	-257.56689003316
0.26293617978341	5.4335722395103	-258.89059643551
0.26378986867881	5.3733065564688	-260.21050964069
0.26464355757421	5.2591843298661	-261.52052288904
0.26549724646961	5.0926132290771	-262.81464498208
0.26635093536501	4.8756654461841	-264.08707608343
0.26720462426042	4.6110525222267	-265.33228121685
0.26805831315582	4.3020920682267	-266.54506053083
0.26891200205122	3.9526667887937	-267.72061543871
0.26976569094662	3.5671763137616	-268.85460979382
0.27061937984202	3.1504824347459	-269.94322532067
0.27147306873742	2.7078484275465	-270.98321059426
0.27232675763282	2.2448732169472	-271.97192294017
0.27318044652822	1.7674212065810	-272.90736271613
0.27403413542362	1.2815486524545	-273.78819953118
0.27488782431902	0.79342750363705	-274.61379005957
0.27574151321442	0.30926766692813	-275.38418721179
0.27659520210982	-0.16476132634176	-276.10014053397
0.27744889100522	-0.62260826419471	-276.76308781730
0.27830257990062	-1.0584168248044	-277.37513800957
0.27915626879603	-1.4665998062396	-277.93904563133
0.28000995769143	-1.8419100752113	-278.45817700602
0.28086364658683	-2.1795073348182	-278.93646871754
0.28171733548223	-2.4750198625922	-279.37837880711
0.28257102437763	-2.7246004322724	-279.78883131376
0.28342471327303	-2.9249757048244	-280.17315484763
0.28427840216843	-3.0734884554803	-280.53701596143
0.28513209106383	-3.1681320928901	-280.88634815254
0.28598577995923	-3.2075770228277	-281.22727738423
0.28683946885463	-3.1911885110064	-281.56604505997
0.28769315775003	-3.1190358062210	-281.90892941853
0.28854684664543	-2.9918923948163	-282.26216633863
0.28940053554083	-2.8112273691512	-282.63187055133
0.29025422443623	-2.5791880046902	-283.02395825448
0.29110791333163	-2.2985737513932	-283.44407210771
0.29196160222704	-1.9728019536377	-283.89750955775
0.29281529112244	-1.6058657177142	-284.38915540364
0.29366898001784	-1.2022844456164	-284.92341945922
0.29452266891324	-0.76704764716306	-285.50418010754
0.29537635780864	-0.30555272822388	-286.13473446868
0.29623004670404	0.17646247008488	-286.81775582044
0.29708373559944	0.67299153892328	-287.55525882077
0.29793742449484	1.1778348767088	-288.34857298351
0.29879111339024	1.6846776266065	-289.19832475554
0.29964480228564	2.1871691977051	-290.10442843568
0.30049849118104	2.6790033694732	-291.06608606451
0.30135218007644	3.1539979700772	-292.08179630143
0.30220586897184	3.6061731228424	-293.14937219201
0.30305955786724	4.0298270715174	-294.26596761628
0.30391324676264	4.4196086238650	-295.42811209915
0.30476693565805	4.7705852941434	-296.63175355764
0.30562062455345	5.0783062777340	-297.87230845950
0.30647431344885	5.3388594548345	-299.14471877267
0.30732800234425	5.5489216941093	-300.44351499924
0.30818169123965	5.7058018103943	-301.76288450881
0.30903538013505	5.8074756220891	-303.09674431868
0.30988906903045	5.8526126525363	-304.43881741033
0.31074275792585	5.8405941242565	-305.78271162567
0.31159644682125	5.7715220040925	-307.12200015256
0.31245013571665	5.6462189697267	-308.45030258691
0.31330382461205	5.4662192822890	-309.76136555010
0.31415751350745	5.2337506643874	-311.04914184407
0.31501120240285	4.9517073964854	-312.30786714316
0.31586489129825	4.6236149556282	-313.53213325100
0.31671858019366	4.2535866277340	-314.71695699266
0.31757226908906	3.8462726266019	-315.85784386520
0.31842595798446	3.4068023482080	-316.95084563487
0.31927964687986	2.9407204765204	-317.99261114349
0.32013333577526	2.4539177358284	-318.98042967152
0.32098702467066	1.9525571535125	-319.91226629736
