#Parameters = {WL=500000; nmesh=35; sigZ=80}
#"Frequency / GHz"	"Z (5) [Real/Imaginary Part] [Re]"	"Z (5) [Real/Imaginary Part] [Im]"
#---------------------------------------------------------------------------------------
0.0000000000000	1.0246105339112	2.5712111446756e-12
0.00012798930764295	0.83410016135798	-0.41761242123101
0.00025597861528590	0.44379412105208	-0.52752376567447
0.00038396792292884	0.19285064143395	-0.34060434708653
0.00051195723057179	0.21475497472478	-0.13338264673785
0.00063994653821474	0.34412184972051	-0.11422891109501
0.00076793584585769	0.36572592631008	-0.22467521114599
0.00089592515350064	0.26362357050863	-0.28123471282829
0.0010239144611436	0.17983170662317	-0.22618316868757
0.0011519037687865	0.19344716315610	-0.16397821132114
0.0012798930764295	0.23219668385240	-0.18464928451803
0.0014078823840724	0.20166112941390	-0.24474863290519
0.0015358716917154	0.11911156462810	-0.25134239731011
0.0016638609993583	0.070635465934874	-0.19903045655013
0.0017918503070013	0.079770905127609	-0.16315921384049
0.0019198396146442	0.083909154230061	-0.18082373969761
0.0020478289222872	0.036120537446444	-0.20298789215798
0.0021758182299301	-0.028847649714970	-0.17603214455432
0.0023038075375731	-0.054174745539017	-0.11988091159055
0.0024317968452160	-0.045549441764292	-0.090770704281083
0.0025597861528590	-0.055639701335577	-0.095435944949022
0.0026877754605019	-0.10166855658660	-0.086548212605215
0.0028157647681449	-0.14311859944337	-0.037846744690561
0.0029437540757878	-0.14643770089229	0.018740455663550
0.0030717433834308	-0.13368706813338	0.045047659032034
0.0031997326910737	-0.14484836603839	0.053319243390040
0.0033277219987167	-0.17675326986656	0.083454277765594
0.0034557113063596	-0.19099269912823	0.14096956517007
0.0035837006140025	-0.17371796277104	0.19083891747876
0.0037116899216455	-0.15449708023742	0.21221337717429
0.0038396792292884	-0.15906459381387	0.22809347497632
0.0039676685369314	-0.17109634230952	0.26739591397586
0.0040956578445743	-0.15956595805604	0.32067789553274
0.0042236471522173	-0.12646167893284	0.35624528281153
0.0043516364598602	-0.10202365369624	0.36870660224794
0.0044796257675032	-0.097839081334550	0.38509897093614
0.0046076150751461	-0.090790176193894	0.42188275896764
0.0047356043827891	-0.060243659463209	0.46034581059276
0.0048635936904320	-0.019486708501427	0.47645437692151
0.0049915829980750	0.0056937891326118	0.47719388329821
0.0051195723057179	0.016181357992797	0.48820516360611
0.0052475616133609	0.036368802416486	0.51389045404990
0.0053755509210038	0.075562874708171	0.53168497949343
0.0055035402286468	0.11408718698578	0.52750242816953
0.0056315295362897	0.13396398171466	0.51672532929859
0.0057595188439327	0.14562314326700	0.51959907822342
0.0058875081515756	0.17032182306095	0.53040075560981
0.0060154974592186	0.20691110910299	0.52743804634555
0.0061434867668615	0.23408868603546	0.50693310880651
0.0062714760745045	0.24322399231407	0.48830496993737
0.0063994653821474	0.25060448358989	0.48399698378767
0.0065274546897904	0.27131351868716	0.48116332342557
0.0066554439974333	0.29600703779907	0.46260669201230
0.0067834333050763	0.30583333967875	0.43356880438012
0.0069114226127192	0.30132854788228	0.41334357592657
0.0070394119203621	0.30074182550657	0.40579413392788
0.0071674012280051	0.31145868482927	0.39447959409640
0.0072953905356480	0.31906378754357	0.36893787189568
0.0074233798432910	0.31011048405620	0.34092931414935
0.0075513691509339	0.29268619877785	0.32619019533524
0.0076793584585769	0.28344882647085	0.32071322335058
0.0078073477662198	0.28204343687906	0.30795765499289
0.0079353370738628	0.27239436593049	0.28496079577495
0.0080633263815057	0.24803509230944	0.26683470193285
0.0081913156891487	0.22199230512481	0.26344878242655
0.0083193049967916	0.20658231193183	0.26481268084856
0.0084472943044346	0.19493598151107	0.25725181369858
0.0085752836120775	0.17246621920088	0.24470096260369
0.0087032729197205	0.13984105829348	0.24237075120516
0.0088312622273634	0.11195230195324	0.25328039300679
0.0089592515350064	0.095136718135932	0.26408107436890
0.0090872408426493	0.078146360796078	0.26602696661852
0.0092152301502923	0.050319211210893	0.26826877645886
0.0093432194579352	0.018359147472964	0.28330492869303
0.0094712087655782	-0.0039654993899748	0.30763720248232
0.0095991980732211	-0.016702554942852	0.32741878329256
0.0097271873808641	-0.032883541185238	0.33978715549517
0.0098551766885070	-0.057813927005228	0.35676016816354
0.0099831659961500	-0.080764869678695	0.38615899322642
0.010111155303793	-0.091512919977544	0.41940614446979
0.010239144611436	-0.095737556264959	0.44476317305639
0.010367133919079	-0.10566892720971	0.46507704756757
0.010495123226722	-0.12093635718004	0.49268309577478
0.010623112534365	-0.12926169633141	0.52983170589486
0.010751101842008	-0.12547627273539	0.56504345263250
0.010879091149651	-0.11922928405791	0.59063488374980
0.011007080457294	-0.11979740313729	0.61401476672589
0.011135069764936	-0.12184814724462	0.64553310578578
0.011263059072579	-0.11401898158537	0.68207753502777
0.011391048380222	-0.096630305857093	0.71173189175817
0.011519037687865	-0.081101109440043	0.73189084265923
0.011647026995508	-0.072347933888330	0.75269545683541
0.011775016303151	-0.061588726960503	0.78081401423425
0.011903005610794	-0.040405715407993	0.80892387941696
0.012030994918437	-0.013998902393671	0.82696543617602
0.012158984226080	0.0067510573161419	0.83742079085866
0.012286973533723	0.021782984947977	0.85102780858046
0.012414962841366	0.041359981682052	0.86990870485511
0.012542952149009	0.069671693414088	0.88432781786523
0.012670941456652	0.098085399105824	0.88781356958939
0.012798930764295	0.11826213012508	0.88701781286489
0.012926920071938	0.13457756015718	0.89122712340093
0.013054909379581	0.15673522790375	0.89805125330349
0.013182898687224	0.18431197816901	0.89740155596628
0.013310887994867	0.20719200893795	0.88730382215109
0.013438877302510	0.22094599206598	0.87697297853141
0.013566866610153	0.23320276576576	0.87263111478291
0.013694855917795	0.25135334792477	0.86821753316408
0.013822845225438	0.27085856757217	0.85522257143034
0.013950834533081	0.28217610076409	0.83616345822139
0.014078823840724	0.28532318744234	0.82086435178373
0.014206813148367	0.28950114417924	0.81155302794975
0.014334802456010	0.29860442255440	0.79992976264552
0.014462791763653	0.30518699763084	0.78053233738652
0.014590781071296	0.30205858575370	0.75952371467085
0.014718770378939	0.29335082284078	0.74541553010847
0.014846759686582	0.28799235025818	0.73631023217390
0.014974748994225	0.28592635033774	0.72339080035180
0.015102738301868	0.27844231476036	0.70502439516758
0.015230727609511	0.26189832466415	0.68955632860282
0.015358716917154	0.24346035380486	0.68264534519925
0.015486706224797	0.23011569131433	0.67890535391461
0.015614695532440	0.21815451734869	0.67068721976321
0.015742684840083	0.19934456938814	0.66019856666633
0.015870674147726	0.17402913104277	0.65620329820242
0.015998663455369	0.15082838898403	0.66060768659180
0.016126652763011	0.13358541373606	0.66577893775203
0.016254642070654	0.11588106254638	0.66658835847711
0.016382631378297	0.091480954123126	0.66838368737693
0.016510620685940	0.064365364598708	0.67863271839382
0.016638609993583	0.042853073819402	0.69535773330054
0.016766599301226	0.027096733362239	0.71026527331031
0.016894588608869	0.0093447352314574	0.72154877208963
0.017022577916512	-0.013601832615477	0.73646598123174
0.017150567224155	-0.035138604043012	0.75983969354668
0.017278556531798	-0.048840205539967	0.78642438024253
0.017406545839441	-0.058069190431894	0.80888762892059
0.017534535147084	-0.070372656712219	0.82888708612822
0.017662524454727	-0.085511387809967	0.85409233503216
0.017790513762370	-0.095699506332674	0.88592469114390
0.017918503070013	-0.097543384347284	0.91707574967547
0.018046492377656	-0.097093559665060	0.94253062319944
0.018174481685299	-0.10028177905640	0.96690686935851
0.018302470992942	-0.10369248972186	0.99681123606878
0.018430460300585	-0.099931761164069	1.0302027170773
0.018558449608227	-0.089131410651272	1.0592443191595
0.018686438915870	-0.078734381187661	1.0820910659240
0.018814428223513	-0.072019599554489	1.1052956210257
0.018942417531156	-0.063229414752057	1.1332170989891
0.019070406838799	-0.046762326818422	1.1609531607815
0.019198396146442	-0.026064897997794	1.1816926489346
0.019326385454085	-0.0084715036988381	1.1969717226605
0.019454374761728	0.0058859918462520	1.2139447259604
0.019582364069371	0.023888328384841	1.2340259107672
0.019710353377014	0.048369471229408	1.2505604298055
0.019838342684657	0.073407412103062	1.2590400829027
0.019966331992300	0.093192272512421	1.2639390582572
0.020094321299943	0.11062503854590	1.2716284414901
0.020222310607586	0.13235059888205	1.2804661103720
0.020350299915229	0.15804338454021	1.2834223828872
0.020478289222872	0.18058266233919	1.2790611091838
0.020606278530515	0.19675004104423	1.2738060280372
0.020734267838158	0.21180324080995	1.2720638404784
0.020862257145801	0.23090772538872	1.2695973474258
0.020990246453443	0.25080863065833	1.2603734751943
0.021118235761086	0.26463430142685	1.2461657583704
0.021246225068729	0.27228551331518	1.2340215953135
0.021374214376372	0.28028431573113	1.2256160157101
0.021502203684015	0.29140929141369	1.2150372241917
0.021630192991658	0.30025058620837	1.1983568601803
0.021758182299301	0.30151861056184	1.1800669623522
0.021886171606944	0.29813975797358	1.1664395767972
0.022014160914587	0.29660789389601	1.1561917203677
0.022142150222230	0.29689193255883	1.1429261863896
0.022270139529873	0.29256963604275	1.1254707245963
0.022398128837516	0.28089978475120	1.1100393576531
0.022526118145159	0.26715789879609	1.1009278200589
0.022654107452802	0.25656380393383	1.0942352753741
0.022782096760445	0.24639428168804	1.0843079569870
0.022910086068088	0.23049222561654	1.0728263396882
0.023038075375731	0.20909435703207	1.0664386619819
0.023166064683374	0.18871405699956	1.0666861909773
0.023294053991017	0.17232890759347	1.0678774185242
0.023422043298660	0.15513717816626	1.0661447725936
0.023550032606302	0.13241333249757	1.0655740237916
0.023678021913945	0.10720547939864	1.0719299644847
0.023806011221588	0.085946899560263	1.0837818522699
0.023934000529231	0.068857403638255	1.0947939152342
0.024061989836874	0.050035460142045	1.1035575253345
0.024189979144517	0.027029843706521	1.1156823963577
0.024317968452160	0.0049944510727198	1.1349578573634
0.024445957759803	-0.010981010186997	1.1573506474415
0.024573947067446	-0.023410293621916	1.1771233024426
0.024701936375089	-0.038142323406320	1.1955187204734
0.024829925682732	-0.054976267885634	1.2185400228070
0.024957914990375	-0.067738146781354	1.2473355999660
0.025085904298018	-0.073646611016654	1.2761375911880
0.025213893605661	-0.077400869753645	1.3009076214957
0.025341882913304	-0.083688453792910	1.3252318606791
0.025469872220947	-0.089793520918947	1.3543489076206
0.025597861528590	-0.089763136264144	1.3866387000897
0.025725850836233	-0.083610062503602	1.4157831562145
0.025853840143876	-0.077260182506264	1.4401950764520
0.025981829451518	-0.073376537654119	1.4650648450324
0.026109818759161	-0.067332360391786	1.4938966228799
0.026237808066804	-0.054547253095671	1.5227145962658
0.026365797374447	-0.037752985352730	1.5459112703860
0.026493786682090	-0.022923430474807	1.5646156769481
0.026621775989733	-0.010233600621877	1.5845994036990
0.026749765297376	0.0059135525027178	1.6070228485197
0.026877754605019	0.027882065229083	1.6264072640711
0.027005743912662	0.050828586928978	1.6389446448202
0.027133733220305	0.069900644621246	1.6482142080506
0.027261722527948	0.087397875580164	1.6594563021720
0.027389711835591	0.10879674941364	1.6713372634545
0.027517701143234	0.13385830046584	1.6779873882084
0.027645690450877	0.15663440560542	1.6781062782827
0.027773679758520	0.17432806419075	1.6769848372574
0.027901669066163	0.19123375341543	1.6783389333965
0.028029658373806	0.21167295764437	1.6786617875624
0.028157647681449	0.23293147596336	1.6728415071006
0.028285636989092	0.24915593395405	1.6622831923866
0.028413626296734	0.26012565923525	1.6529266787967
0.028541615604377	0.27127957888124	1.6462722700516
0.028669604912020	0.28499453747471	1.6373578279607
0.028797594219663	0.29667954068293	1.6227942507575
0.028925583527306	0.30172817202994	1.6063537795894
0.029053572834949	0.30250692107826	1.5934484770246
0.029181562142592	0.30454150011144	1.5831002180214
0.029309551450235	0.30785736779936	1.5698625987105
0.029437540757878	0.30692506007007	1.5526734810758
0.029565530065521	0.29926538085146	1.5368770862084
0.029693519373164	0.28933578258196	1.5262977454436
0.029821508680807	0.28168441644634	1.5176901467669
0.029949497988450	0.27402653711082	1.5061630831942
0.030077487296093	0.26098278774337	1.4931225415738
0.030205476603736	0.24264377979353	1.4843992411196
0.030333465911379	0.22465622925982	1.4814924245674
0.030461455219022	0.20972017118769	1.4795321389745
0.030589444526665	0.19371163350497	1.4750979475012
0.030717433834308	0.17242915974879	1.4717313817084
0.030845423141951	0.14846215273722	1.4745936145283
0.030973412449593	0.12751994661576	1.4825859653420
0.031101401757236	0.10994224347119	1.4901643624100
0.031229391064879	0.090571976054613	1.4960049899770
0.031357380372522	0.067161031497875	1.5050563894602
0.031485369680165	0.044239178152554	1.5208109795371
0.031613358987808	0.026449799875415	1.5398134857730
0.031741348295451	0.011715172893309	1.5569229308884
0.031869337603094	-0.0051670158988659	1.5731381426096
0.031997326910737	-0.024105918507357	1.5938391975780
0.032125316218380	-0.039556325247119	1.6201982883648
0.032253305526023	-0.048849171909263	1.6471069585550
0.032381294833666	-0.056070802855025	1.6708249828040
0.032509284141309	-0.065483617111317	1.6944633960975
0.032637273448952	-0.074723172884631	1.7228010474217
0.032765262756595	-0.078331846870759	1.7545048748901
0.032893252064238	-0.076126123011591	1.7838369084398
0.033021241371881	-0.073403799620776	1.8091847301946
0.033149230679524	-0.072685866458998	1.8351679799473
0.033277219987167	-0.069825538282102	1.8650681325452
0.033405209294809	-0.060515226688818	1.8953526362854
0.033533198602452	-0.047073578343716	1.9207930525674
0.033661187910095	-0.034977075249758	1.9422201148067
0.033789177217738	-0.024534573531710	1.9648792957122
0.033917166525381	-0.010632238163017	1.9899582787011
0.034045155833024	0.0090702746994512	2.0124510005705
0.034173145140667	0.030229499225052	2.0286676069825
0.034301134448310	0.048260211757457	2.0417230437723
0.034429123755953	0.065119939582694	2.0564907661323
0.034557113063596	0.085908656366674	2.0718709511471
0.034685102371239	0.11057906688785	2.0823799208227
0.034813091678882	0.13363539398941	2.0865834518281
0.034941080986525	0.15228308636308	2.0892763049784
0.035069070294168	0.17037391189597	2.0940326048043
0.035197059601811	0.19203197097666	2.0977015647007
0.035325048909454	0.21487046473651	2.0953901214300
0.035453038217097	0.23333371249087	2.0881862525135
0.035581027524740	0.24697109040306	2.0816298723230
0.035709016832383	0.26079872271717	2.0773116317542
0.035837006140025	0.27719846025771	2.0706447582899
0.035964995447668	0.29194054125202	2.0582607702365
0.036092984755311	0.30050423359013	2.0435373739126
0.036220974062954	0.30487968384049	2.0316750762070
0.036348963370597	0.31029416012921	2.0219690923217
0.036476952678240	0.31695376394694	2.0092713442202
0.036604941985883	0.31962563295632	1.9923628249976
0.036732931293526	0.31570582828169	1.9762304039832
0.036860920601169	0.30924419183318	1.9647122471556
0.036988909908812	0.30468009951468	1.9549295984722
0.037116899216455	0.30001851682362	1.9421438191892
0.037244888524098	0.29003969565028	1.9274893303650
0.037372877831741	0.27455443040021	1.9165717181214
0.037500867139384	0.25888524839036	1.9111062151908
0.037628856447027	0.24582657619928	1.9065757374603
0.037756845754670	0.23156525762246	1.8995390035934
0.037884835062313	0.21189091978846	1.8932372121388
0.038012824369956	0.18904922194189	1.8927919839023
0.038140813677599	0.16859432912089	1.8974485901011
0.038268802985241	0.15112425795113	1.9019050519623
0.038396792292884	0.13172635935510	1.9046611373799
0.038524781600527	0.10798918273344	1.9104234430864
0.038652770908170	0.084137383390642	1.9228315735416
0.038780760215813	0.064865158950645	1.9387975913692
0.038908749523456	0.048436688571180	1.9532473365900
0.039036738831099	0.029760916063935	1.9669042142861
0.039164728138742	0.0086638415428087	1.9850320916630
0.039292717446385	-0.0094885038474455	2.0090889315260
0.039420706754028	-0.021789545728185	2.0342501010423
0.039548696061671	-0.032000345962035	2.0566506946106
0.039676685369314	-0.044435369463372	2.0791082317135
0.039804674676957	-0.057018723568743	2.1064434141486
0.039932663984600	-0.064294481758426	2.1376638056493
0.040060653292243	-0.065723756820154	2.1671488761475
0.040188642599886	-0.066390701323047	2.1930046381922
0.040316631907529	-0.069019295806628	2.2196240513086
0.040444621215172	-0.069692595779490	2.2504794616642
0.040572610522815	-0.063923460541693	2.2823371393597
0.040700599830458	-0.053657146231063	2.3098820996562
0.040828589138100	-0.044333432202440	2.3335834622103
0.040956578445743	-0.036562528546743	2.3585949044206
0.041084567753386	-0.025334143444306	2.3863958822603
0.041212557061029	-0.0079911794228140	2.4121510693058
0.041340546368672	0.011408192175348	2.4318961658946
0.041468535676315	0.028118393823104	2.4484043584571
0.041596524983958	0.043776521483828	2.4666272912467
0.041724514291601	0.063541666907456	2.4857836287105
0.041852503599244	0.087740476845533	2.5003787580442
0.041980492906887	0.11098976969819	2.5085825629127
0.042108482214530	0.13016968420258	2.5149660052139
0.042236471522173	0.14888068322097	2.5233435122134
0.042364460829816	0.17146540257199	2.5308256478668
0.042492450137459	0.19587156101256	2.5323177645716
0.042620439445102	0.21644088515167	2.5284903785306
0.042748428752745	0.23230900257850	2.5248489941425
0.042876418060388	0.24838482177448	2.5233367112717
0.043004407368031	0.26738485945408	2.5194978412675
0.043132396675674	0.28528441684420	2.5096106719298
0.043260385983316	0.29725632194967	2.4967237294685
0.043388375290959	0.30489264299883	2.4862189307474
0.043516364598602	0.31350137371111	2.4777742251353
0.043644353906245	0.32366579944244	2.4661967029472
0.043772343213888	0.33016702143289	2.4498399978632
0.043900332521531	0.32995424599119	2.4335423246382
0.044028321829174	0.32680136496239	2.4215115740211
0.044156311136817	0.32541625370962	2.4111860943661
0.044284300444460	0.32413480317887	2.3975999013134
0.044412289752103	0.31754128747852	2.3814848806941
0.044540279059746	0.30496041589822	2.3685308421563
0.044668268367389	0.29164358141065	2.3609346738446
0.044796257675032	0.28079507153165	2.3543436907587
0.044924246982675	0.26880273926873	2.3449429218264
0.045052236290318	0.25108064954934	2.3356939444284
0.045180225597961	0.22946596426716	2.3320335285103
0.045308214905604	0.20968461351545	2.3336902657488
0.045436204213247	0.19280089190757	2.3353155689180
0.045564193520890	0.17391268772028	2.3349611746468
0.045692182828532	0.15012598982653	2.3372516987143
0.045820172136175	0.12543855229658	2.3463158266004
0.045948161443818	0.10494039880614	2.3594325273882
0.046076150751461	0.087312302459259	2.3712577709453
0.046204140059104	0.067261422543048	2.3820877125434
0.046332129366747	0.044125483775404	2.3973363883161
0.046460118674390	0.023293096049216	2.4190238095218
0.046588107982033	0.0082173228668760	2.4424767205450
0.046716097289676	-0.0045996626580004	2.4633758524252
0.046844086597319	-0.019862721506350	2.4842298711107
0.046972075904962	-0.035882040330417	2.5102263612912
0.047100065212605	-0.046915823077414	2.5408843298696
