#Parameters = {L=100; Lstep=100; Lt=13.5; Nmesh1=25; Nmesh2=10; aper=50; bunch=15; h=56; r=76; r1=41.5; rt=78; spec=10; th=4; x_beam=5; x_test=-5; y_beam=0; y_test=0}
#"Frequency / GHz"	"X (x_beam=5) [Re / Ohm]"	"X (x_beam=5) [Im / Ohm]"
#---------------------------------------------------------------------
0.0000000000000	-9.4692893812932e-13	-17.444631545147
0.0068260964076239	-0.67108810593761	-17.300989608030
0.013652192815248	-1.2048928975541	-16.908902969874
0.020478289222872	-1.5065855756716	-16.371670104961
0.027304385630496	-1.5509522476840	-15.822388325292
0.034130482038120	-1.3849278861059	-15.380837323691
0.040956578445743	-1.1056570084078	-15.117702734718
0.047782674853367	-0.82339674009613	-15.038543678134
0.054608771260991	-0.62377685597312	-15.091834667428
0.061434867668615	-0.54323686972670	-15.196043287936
0.068260964076239	-0.56540864261045	-15.273840259580
0.075087060483863	-0.63750604856895	-15.279801632840
0.081913156891487	-0.69808432565535	-15.211755341811
0.088739253299111	-0.70389828331980	-15.103352562849
0.095565349706735	-0.64522204073239	-15.003220246751
0.10239144611436	-0.54483024985370	-14.950945313403
0.10921754252198	-0.44312826179753	-14.960342290221
0.11604363892961	-0.37748052698765	-15.016257383938
0.12286973533723	-0.36540643441732	-15.084705182331
0.12969583174485	-0.39862527869336	-15.130372462509
0.13652192815248	-0.44945917865457	-15.132890660728
0.14334802456010	-0.48546556739596	-15.094663816006
0.15017412096773	-0.48486624979407	-15.037501658854
0.15700021737535	-0.44564751232754	-14.990616565688
0.16382631378297	-0.38470182035733	-14.976254507509
0.17065241019060	-0.32824368562366	-14.999793956063
0.17747850659822	-0.29865139065012	-15.048543924867
0.18430460300585	-0.30414281310462	-15.099122454511
0.19113069941347	-0.33590045070448	-15.129319664944
0.19795679582109	-0.37345505916855	-15.128552440590
0.20478289222872	-0.39521578373341	-15.102086467476
0.21160898863634	-0.38882723013199	-15.067452273833
0.21843508504396	-0.35646150036108	-15.045260725749
0.22526118145159	-0.31285348975908	-15.049129430707
0.23208727785921	-0.27745729891409	-15.079564738014
0.23891337426684	-0.26480979425627	-15.124479943980
0.24573947067446	-0.27780499357636	-15.165720250247
0.25256556708208	-0.30693314608661	-15.188137923749
0.25939166348971	-0.33552499395302	-15.186731365329
0.26621775989733	-0.34816767186171	-15.168524678293
0.27304385630496	-0.33808505633843	-15.148554589383
0.27986995271258	-0.30998273946353	-15.142190368455
0.28669604912020	-0.27720750359635	-15.157665797383
0.29352214552783	-0.25486128349518	-15.192415970139
0.30034824193545	-0.25238262856268	-15.234812318501
0.30717433834308	-0.26920686328010	-15.270213419164
0.31400043475070	-0.29547020921143	-15.288212643858
0.32082653115832	-0.31719998766038	-15.287519256420
0.32765262756595	-0.32328524310362	-15.276204636825
0.33447872397357	-0.31077055049556	-15.267383923531
0.34130482038120	-0.28596756245580	-15.272614216418
0.34813091678882	-0.26100718537475	-15.296309552894
0.35495701319644	-0.24768496312043	-15.333852460204
0.36178310960407	-0.25169915953074	-15.374183915538
0.36860920601169	-0.27007637313021	-15.405445257847
0.37543530241931	-0.29292672157310	-15.420810106978
0.38226139882694	-0.30851998710401	-15.421652069535
0.38908749523456	-0.30908855682389	-15.416591716884
0.39591359164219	-0.29449527547895	-15.417027085026
0.40273968804981	-0.27204157323748	-15.431450169140
0.40956578445743	-0.25263385418140	-15.461371352008
0.41639188086506	-0.24530103103434	-15.500798099956
0.42321797727268	-0.25280187851475	-15.539414091889
0.43004407368031	-0.27044424171268	-15.567787663992
0.43687017008793	-0.28860084839679	-15.581993083874
0.44369626649555	-0.29757915510570	-15.585392006801
0.45052236290318	-0.29238534217386	-15.586780260298
0.45734845931080	-0.27504294344403	-15.595912279445
0.46417455571843	-0.25339199451261	-15.618676634743
0.47100065212605	-0.23705379516735	-15.654307057418
0.47782674853367	-0.23262303063943	-15.695949682270
0.48465284494130	-0.24047670516700	-15.734221290390
0.49147894134892	-0.25473325633157	-15.761929221992
0.49830503775654	-0.26630523648655	-15.777595868049
0.50513113416417	-0.26746491509637	-15.786076507816
0.51195723057179	-0.25563280102825	-15.796033319284
0.51878332697942	-0.23453516269251	-15.815585612509
0.52560942338704	-0.21221757068073	-15.848327392051
0.53243551979466	-0.19696625231218	-15.891673736547
0.53926161620229	-0.19320081400839	-15.938304033957
0.54608771260991	-0.19937276347249	-15.979922127219
0.55291380901754	-0.20886989361050	-16.011422711775
0.55973990542516	-0.21341817466087	-16.033390325994
0.56656600183278	-0.20724536617868	-16.051723744179
0.57339209824041	-0.18992595817307	-16.074626347577
0.58021819464803	-0.16651948845800	-16.108504803691
0.58704429105566	-0.14498216356685	-16.154832160310
0.59387038746328	-0.13218547228054	-16.209516573342
0.60069648387090	-0.13054434202124	-16.265046162257
0.60752258027853	-0.13692105722417	-16.314296689673
0.61434867668615	-0.14431279097116	-16.354080311758
0.62117477309378	-0.14543815270065	-16.386672808737
0.62800086950140	-0.13640675805893	-16.418589651244
0.63482696590902	-0.11864145282388	-16.457261784275
0.64165306231665	-0.098119456171282	-16.507298828071
0.64847915872427	-0.082347720475330	-16.568209598919
0.65530525513189	-0.076611878437590	-16.634698250731
0.66213135153952	-0.081380572295740	-16.699355209991
0.66895744794714	-0.092146950701420	-16.756369323407
0.67578354435477	-0.10175700242356	-16.804394332066
0.68260964076239	-0.10403173497738	-16.847146767161
0.68943573717001	-0.096856910895855	-16.891461785115
0.69626183357764	-0.083199654770135	-16.943807271615
0.70308792998526	-0.069563825005910	-17.007017569150
0.70991402639289	-0.062682465447244	-17.078881299010
0.71674012280051	-0.066120968813711	-17.153274539102
0.72356621920813	-0.078494818697882	-17.223249725486
0.73039231561576	-0.094182785917170	-17.284515461363
0.73721841202338	-0.10615865051364	-17.337558497554
0.74404450843101	-0.10950468843970	-17.387352795872
0.75087060483863	-0.10383771239160	-17.440818471188
0.75769670124625	-0.093435373105458	-17.503322059092
0.76452279765388	-0.085012418766704	-17.575983782270
0.77134889406150	-0.084277808707941	-17.655142956674
0.77817499046912	-0.093011345713345	-17.734241590992
0.78500108687675	-0.10813027290680	-17.807169054935
0.79182718328437	-0.12321004740744	-17.871378997518
0.79865327969200	-0.13168706619238	-17.929209403508
0.80547937609962	-0.13012639346689	-17.986745283249
0.81230547250724	-0.11990827318820	-18.050802483316
0.81913156891487	-0.10648671758319	-18.125556830035
0.82595766532249	-0.096598518826626	-18.210519820726
0.83278376173012	-0.094834766720746	-18.300881761183
0.83960985813774	-0.10130886711639	-18.390048240918
0.84643595454536	-0.11160263565188	-18.473087852985
0.85326205095299	-0.11902273403517	-18.549346540698
0.86008814736061	-0.11803191568971	-18.622901116989
0.86691424376824	-0.10712211370988	-18.700612942096
0.87374034017586	-0.089672300306664	-18.788755279185
0.88056643658348	-0.072346980840134	-18.889913048617
0.88739253299111	-0.061832749660846	-19.001723625550
0.89421862939873	-0.061554671072025	-19.118103852657
0.90104472580636	-0.070032931870427	-19.232354034908
0.90787082221398	-0.081719237040626	-19.340576289400
0.91469691862160	-0.089901605546576	-19.443675936485
0.92152301502923	-0.090215115240577	-19.546921167841
0.92834911143685	-0.082977843301804	-19.657267020626
0.93517520784447	-0.073152606283929	-19.779786114873
0.94200130425210	-0.067929564497871	-19.915014649280
0.94882740065972	-0.073133182358682	-20.058575644455
0.95565349706735	-0.090267515799918	-20.203299493019
0.96247959347497	-0.11571072775878	-20.342795709165
0.96930568988259	-0.14249643644702	-20.474679607372
0.97613178629022	-0.16381084530301	-20.601809853126
0.98295788269784	-0.17645110269373	-20.730881567255
0.98978397910547	-0.18248561950755	-20.869054587168
0.99661007551309	-0.18824569733303	-21.020305314810
1.0034361719207	-0.20112194156976	-21.183356794070
1.0102622683283	-0.22576342985130	-21.352268129710
1.0170883647360	-0.26160827132265	-21.519428770373
1.0239144611436	-0.30303001274955	-21.679474224784
1.0307405575512	-0.34207555250141	-21.832143313660
1.0375666539588	-0.37244950932315	-21.982598420741
1.0443927503665	-0.39273799031258	-22.138993474525
1.0512188467741	-0.40721061054811	-22.308472689033
1.0580449431817	-0.42373817836321	-22.493608688144
1.0648710395893	-0.44982363399259	-22.691109896046
1.0716971359970	-0.48872928385881	-22.893512796704
1.0785232324046	-0.53768244656502	-23.093069873844
1.0853493288122	-0.58913149360161	-23.285904357532
1.0921754252198	-0.63449363784277	-23.474316547004
1.0990015216274	-0.66854944423716	-23.666012387810
1.1058276180351	-0.69225711152670	-23.870561158803
1.1126537144427	-0.71250086615559	-24.094812740053
1.1194798108503	-0.73880751847172	-24.339589623815
1.1263059072579	-0.77861447335038	-24.599393168304
1.1331320036656	-0.83346598352725	-24.865384655820
1.1399581000732	-0.89812634876520	-25.130241301776
1.1467841964808	-0.96318797978470	-25.392480710645
1.1536102928884	-1.0199991209502	-25.658024924182
1.1604363892961	-1.0655147316703	-25.938086621163
1.1672624857037	-1.1046180978267	-26.244281867674
1.1740885821113	-1.1486372939649	-26.583306470958
1.1809146785189	-1.2106398609832	-26.953824345992
1.1877407749266	-1.2997221071584	-27.347214039380
1.1945668713342	-1.4170934960106	-27.751963152822
1.2013929677418	-1.5559695001110	-28.159689505621
1.2082190641494	-1.7054816588558	-28.569904126294
1.2150451605571	-1.8568619421622	-28.991167048494
1.2218712569647	-2.0090251686584	-29.437987405265
1.2286973533723	-2.1709368917017	-29.924862073028
1.2355234497799	-2.3597067468971	-30.460220120658
1.2423495461876	-2.5954305820702	-31.043046159401
1.2491756425952	-2.8953758241108	-31.663571629041
1.2560017390028	-3.2703556511472	-32.307331296551
1.2628278354104	-3.7249132075474	-32.960144617460
1.2696539318180	-4.2608349506627	-33.611111028633
1.2764800282257	-4.8816049981249	-34.251796768547
1.2833061246333	-5.5947178643383	-34.871934990491
1.2901322210409	-6.4097240469411	-35.454084194431
1.2969583174485	-7.3320983392247	-35.970666152961
1.3037844138562	-8.3554266164735	-36.386030742663
1.3106105102638	-9.4557672127330	-36.663928010360
1.3174366066714	-10.591570774994	-36.778042491312
1.3242627030790	-11.710322206129	-36.721398213152
1.3310887994867	-12.760064058567	-36.510461413012
1.3379148958943	-13.701585593286	-36.181776868992
1.3447409923019	-14.516502566810	-35.782128236907
1.3515670887095	-15.208074309651	-35.356064851502
1.3583931851172	-15.794731005884	-34.935817033720
1.3652192815248	-16.299483191441	-34.537510573819
1.3720453779324	-16.740137170072	-34.164655121083
1.3788714743400	-17.124675160815	-33.816486196675
1.3856975707477	-17.453508468296	-33.496516224764
1.3925236671553	-17.726832653169	-33.216700746287
1.3993497635629	-17.952706243773	-32.994969180631
1.4061758599705	-18.151059719312	-32.847387962188
1.4130019563781	-18.350891351871	-32.779177360475
1.4198280527858	-18.581467533835	-32.779669663777
1.4266541491934	-18.861662369189	-32.824540751656
1.4334802456010	-19.192929663654	-32.885034676039
1.4403063420086	-19.559987203229	-32.940177682007
1.4471324384163	-19.939653514089	-32.986046492227
1.4539585348239	-20.314117533781	-33.037128382694
1.4607846312315	-20.682323233661	-33.118405237759
1.4676107276391	-21.063552022079	-33.251386408834
1.4744368240468	-21.490719116416	-33.440663451132
1.4812629204544	-21.995882569736	-33.667878230012
1.4880890168620	-22.594625324547	-33.896875051887
1.4949151132696	-23.277164332790	-34.088515969767
1.5017412096773	-24.011417275182	-34.218621034795
1.5085673060849	-24.757780204820	-34.290260829814
1.5153934024925	-25.489481972221	-34.333528412700
1.5222194989001	-26.208932685716	-34.391398816002
1.5290455953078	-26.951381547228	-34.497008424537
1.5358716917154	-27.772419200233	-34.652515818646
1.5426977881230	-28.723304045169	-34.820139653314
1.5495238845306	-29.824425917996	-34.931382392678
1.5563499809382	-31.049348662924	-34.912530374144
1.5631760773459	-32.328406620456	-34.716659591984
1.5700021737535	-33.572858379090	-34.348213560328
1.5768282701611	-34.711368644960	-33.867988126487
1.5836543665687	-35.724161834323	-33.373766261987
1.5904804629764	-36.659668580818	-32.962041807538
1.5973065593840	-37.624548751877	-32.684965004651
1.6041326557916	-38.748438319122	-32.519934784914
1.6109587521992	-40.135397553482	-32.365388890334
1.6177848486069	-41.820306355157	-32.066551812786
1.6246109450145	-43.747497267370	-31.463040815561
1.6314370414221	-45.780843270279	-30.441183343726
1.6382631378297	-47.742447825322	-28.971513517736
1.6450892342374	-49.465900946785	-27.117334588031
1.6519153306450	-50.844367212324	-25.011356139187
1.6587414270526	-51.855924016208	-22.809737839838
1.6655675234602	-52.557683866626	-20.641377361829
1.6723936198679	-53.052542442735	-18.571547560463
1.6792197162755	-53.442838373681	-16.592625939922
1.6860458126831	-53.789587931781	-14.643441666566
1.6928719090907	-54.092671779657	-12.647416658684
1.6996980054984	-54.298031214311	-10.552845460495
1.7065241019060	-54.326665687113	-8.3589577610629
1.7133501983136	-54.111757926913	-6.1183737492748
1.7201762947212	-53.627959435608	-3.9169546804835
1.7270023911288	-52.901362692116	-1.8413323419496
1.7338284875365	-51.997675753344	0.051271210553130
1.7406545839441	-50.995511714662	1.7484797653367
1.7474806803517	-49.957468744143	3.2783111463051
1.7543067767593	-48.911560109287	4.6886752891413
1.7611328731670	-47.849994562283	6.0213062930552
1.7679589695746	-46.744096258780	7.2921719592052
1.7747850659822	-45.567083149710	8.4865259453607
1.7816111623898	-44.313557277058	9.5695296164092
1.7884372587975	-43.006909287321	10.506226345802
1.7952633552051	-41.692015433753	11.280810955120
1.8020894516127	-40.417574320665	11.906137549218
1.8089155480203	-39.216969196492	12.419505110952
1.8157416444280	-38.096710728537	12.867380762878
1.8225677408356	-37.037480336581	13.286733543705
1.8293938372432	-36.006645630748	13.691826591458
1.8362199336508	-34.975818248491	14.072306634904
1.8430460300585	-33.934994251192	14.402845916362
1.8498721264661	-32.896846900028	14.659162837557
1.8566982228737	-31.889691107241	14.832505785188
1.8635243192813	-30.943054357733	14.935792984568
1.8703504156889	-30.073104556167	14.998868667172
1.8771765120966	-29.274929326617	15.055616583913
1.8840026085042	-28.525103209467	15.129430918515
1.8908287049118	-27.792935186290	15.224065180557
1.8976548013194	-27.054707545735	15.324041420917
1.9044808977271	-26.303999634559	15.404079512303
1.9113069941347	-25.553310755816	15.442713920786
1.9181330905423	-24.826527282480	15.433432285253
1.9249591869499	-24.146178919601	15.388086106234
1.9317852833576	-23.521794827489	15.331204895021
1.9386113797652	-22.944936583568	15.288256537975
1.9454374761728	-22.393099710462	15.273710616683
1.9522635725804	-21.840340956448	15.284678276904
1.9590896689881	-21.269311351337	15.303047065081
1.9659157653957	-20.678847411163	15.304851676859
1.9727418618033	-20.083574889513	15.272165613071
1.9795679582109	-19.505928114669	15.201706909575
1.9863940546186	-18.964639834630	15.106087293545
1.9932201510262	-18.465360115470	15.007290568189
2.0000462474338	-17.997895453352	14.925733158351
2.0068723438414	-17.541249904642	14.870317829984
2.0136984402491	-17.073845518774	14.834286714326
2.0205245366567	-16.583848271406	14.798763750651
2.0273506330643	-16.074583137980	14.742108997341
2.0341767294719	-15.562507199225	14.650427768248
2.0410028258795	-15.068870613625	14.524110750418
2.0478289222872	-14.609236421727	14.377307164835
2.0546550186948	-14.185990554690	14.230722429850
2.0614811151024	-13.787426644786	14.101366546713
2.0683072115100	-13.393731568029	13.994296057060
2.0751333079177	-12.986837588430	13.900335852275
2.0819594043253	-12.559277513094	13.800792146092
2.0887855007329	-12.117743110640	13.676750271486
2.0956115971405	-11.679692073125	13.518357259230
2.1024376935482	-11.264757868864	13.329566027621
2.1092637899558	-10.885221861028	13.126093986571
2.1160898863634	-10.540203493577	12.927685569165
2.1229159827710	-10.216349097346	12.748528165766
2.1297420791787	-9.8945960767711	12.590519486385
2.1365681755863	-9.5596333166899	12.442633826016
2.1433942719939	-9.2074061663592	12.286620382497
2.1502203684015	-8.8470241101737	12.106175525192
2.1570464648092	-8.4962023088798	11.895069116471
2.1638725612168	-8.1725334555128	11.660265761628
2.1706986576244	-7.8848971457348	11.418567332943
2.1775247540320	-7.6292025027094	11.188481310004
2.1843508504396	-7.3905022929563	10.981333840305
2.1911769468473	-7.1503855616271	10.795976936172
2.1980030432549	-6.8959874263970	10.619643573434
2.2048291396625	-6.6261969643575	10.434478132239
2.2116552360701	-6.3520509301629	10.226500186828
2.2184813324778	-6.0911674903878	9.9925966296718
2.2253074288854	-5.8589891352801	9.7421352952307
2.2321335252930	-5.6611437492301	9.4924485506676
2.2389596217006	-5.4906556251102	9.2604387421320
2.2457857181083	-5.3313408332322	9.0544394023138
2.2526118145159	-5.1656872576257	8.8703147728145
2.2594379109235	-4.9833354546054	8.6936823768711
2.2662640073311	-4.7860046174819	8.5071361271145
2.2730901037388	-4.5864703178484	8.2989059750115
2.2799162001464	-4.4021247283515	8.0687050030350
2.2867422965540	-4.2463000049628	7.8279122196712
2.2935683929616	-4.1216167114998	7.5940258230214
2.3003944893693	-4.0186097235570	7.3821281636143
2.3072205857769	-3.9202864577051	7.1975569964032
2.3140466821845	-3.8103636220290	7.0333719355310
2.3208727785921	-3.6811334813172	6.8738439917723
2.3276988749998	-3.5371039209085	6.7022409484318
2.3345249714074	-3.3926379203296	6.5090804320118
2.3413510678150	-3.2647634460945	6.2968021659195
2.3481771642226	-3.1646900008640	6.0785745487247
2.3550032606302	-3.0921960246653	5.8718306051326
2.3618293570379	-3.0356375370817	5.6897120198670
2.3686554534455	-2.9775684024386	5.5346222204087
2.3754815498531	-2.9032101528841	5.3970513684133
2.3823076462607	-2.8076130368565	5.2602481605489
2.3891337426684	-2.6979932523136	5.1084446811220
2.3959598390760	-2.5900982128610	4.9345972057250
2.4027859354836	-2.5003819399838	4.7438422774196
2.4096120318912	-2.4378299505534	4.5509681161474
2.4164381282989	-2.3994482421729	4.3731374857803
2.4232642247065	-2.3716367641581	4.2214305424916
2.4300903211141	-2.3367818605947	4.0953604942226
2.4369164175217	-2.2818384925301	3.9830621887347
2.4437425139294	-2.2046896028407	3.8670732630195
2.4505686103370	-2.1151522257421	3.7328806873915
2.4573947067446	-2.0301214159914	3.5760401103180
2.4642208031522	-1.9652213036550	3.4043647274729
2.4710468995599	-1.9270558671255	3.2340918350775
2.4778729959675	-1.9098711249376	3.0818905201883
2.4846990923751	-1.8982866244980	2.9566243504247
2.4915251887827	-1.8747779054337	2.8549187067195
2.4983512851903	-1.8282509658313	2.7627294938585
2.5051773815980	-1.7594965155960	2.6621698602598
2.5120034780056	-1.6808255461019	2.5402631321550
2.5188295744132	-1.6100348516278	2.3953262138835
2.5256556708208	-1.5616399608492	2.2378297842274
2.5324817672285	-1.5396733363037	2.0852798967186
2.5393078636361	-1.5356014292124	1.9536032590707
2.5461339600437	-1.5324185331136	1.8492536920854
2.5529600564513	-1.5129437716004	1.7659300631206
2.5597861528590	-1.4682662129627	1.6875538226421
2.5666122492666	-1.4021812899658	1.5960860947610
2.5734383456742	-1.3294034138797	1.4803722233447
2.5802644420818	-1.2683855139996	1.3416664993212
2.5870905384895	-1.2322373737695	1.1930887904895
2.5939166348971	-1.2221997063530	1.0532288349446
