#Parameters = {L=100; Lstep=100; Lt=13.5; Nmesh1=25; Nmesh2=10; aper=50; bunch=15; h=56; r=76; r1=41.5; rt=78; spec=10; th=4; x_beam=5; x_test=-5; y_beam=0; y_test=0}
#"Frequency / GHz"	"Z (x_beam=5) [Re / Ohm]"	"Z (x_beam=5) [Im / Ohm]"
#---------------------------------------------------------------------
0.0000000000000	6.3189011866068	-2.0293863973886e-11
0.0068260964076239	4.7274142433744	-4.0353978243166
0.013652192815248	0.75796518439805	-5.9543322240902
0.020478289222872	-3.5809569835892	-4.7100741743970
0.027304385630496	-6.0919796272011	-0.85544073041856
0.034130482038120	-5.4996430339362	3.7350678938588
0.040956578445743	-2.0966574891529	6.8112537333645
0.047782674853367	2.4013067415932	6.8844939595655
0.054608771260991	5.7202530490904	3.9822589177145
0.061434867668615	6.1766273173361	-0.36198236583754
0.068260964076239	3.5305915633210	-3.8801537470315
0.075087060483863	-0.88805837454118	-4.7145954240851
0.081913156891487	-4.8471453247170	-2.3593315850359
0.088739253299111	-6.3380406075439	2.0787131056166
0.095565349706735	-4.5929980801232	6.4330597451064
0.10239144611436	-0.47932519926641	8.5692196386572
0.10921754252198	3.9315421963995	7.4651101032617
0.11604363892961	6.4061258550840	3.7342049490569
0.12286973533723	5.6784791871880	-0.67581507370325
0.12969583174485	2.0967241469153	-3.4609929016152
0.13652192815248	-2.5430263267888	-3.1250881799820
0.14334802456010	-5.8962794734744	0.25768873199684
0.15017412096773	-6.2531494370062	5.0693375257175
0.15700021737535	-3.4085339945042	8.9558881136806
0.16382631378297	1.2226244173727	10.013411044589
0.17065241019060	5.3087533750347	7.7553621221303
0.17747850659822	6.7743246341015	3.3705503207894
0.18430460300585	4.8526330052111	-0.86428105629930
0.19113069941347	0.48546799265239	-2.7272108953926
0.19795679582109	-4.1379102007483	-1.1762411070666
0.20478289222872	-6.6769876457143	3.1121736328235
0.21160898863634	-5.8230278316328	8.0687122541263
0.21843508504396	-1.9717333246720	11.264394849857
0.22526118145159	2.9593771571618	11.135992434172
0.23208727785921	6.4850522601872	7.7861939082854
0.23891337426684	6.8035248066328	2.9498013798322
0.24573947067446	3.7156578711714	-0.86568241016696
0.25256556708208	-1.2560023558565	-1.6396480611795
0.25939166348971	-5.6172087258223	1.1338972774121
0.26621775989733	-7.1518788106645	6.1723274942851
0.27304385630496	-5.0461662261689	11.031201737112
0.27986995271258	-0.31744129751175	13.325824304039
0.28669604912020	4.6768263011357	11.937683500638
0.29352214552783	7.4134955915707	7.5962790444317
0.30034824193545	6.4769323929146	2.5347363084787
0.30717433834308	2.2893173607990	-0.61865722843299
0.31400043475070	-3.0776484314805	-0.16322672576855
0.32082653115832	-6.9266616801491	3.8019505143578
0.32765262756595	-7.2886948398288	9.4027855139042
0.33447872397357	-3.9280153525541	13.911493493939
0.34130482038120	1.5136346587916	15.111924642990
0.34813091678882	6.3185017640587	12.426221106465
0.35495701319644	8.0490208079913	7.2310045124262
0.36178310960407	5.7826243546031	2.1919186239248
0.36860920601169	0.60058678035451	-0.062173949219607
0.37543530241931	-4.9266628777930	1.7334913539095
0.38226139882694	-8.0132809690080	6.8200047076181
0.38908749523456	-7.0601508695153	12.765614805487
0.39591359164219	-2.4805906911867	16.665640606966
0.40273968804981	3.4755052950014	16.599878687882
0.40956578445743	7.8262119844625	12.617096212160
0.41639188086506	8.3490123474019	6.7430312140897
0.42321797727268	4.7139544387374	1.9921823468996
0.43004407368031	-1.3180941227504	0.86500693856301
0.43687017008793	-6.7472775381352	4.0789838275694
0.44369626649555	-8.8250929758285	10.176428448220
0.45052236290318	-6.4435190467023	16.221189450808
0.45734845931080	-0.72188779536801	19.251865271313
0.46417455571843	5.5175741789930	17.772935366317
0.47100065212605	9.1406828963102	12.533990854555
0.47782674853367	8.2737972360476	6.1926026387336
0.48465284494130	3.2698698015956	2.0109306893675
0.49147894134892	-3.4286322679528	2.2247291708249
0.49830503775654	-8.4805962846130	6.8993030940822
0.50513113416417	-9.3108930008306	13.856504652850
0.51195723057179	-5.4202661602038	19.728820874372
0.51878332697942	1.3245534239523	21.631093335673
0.52560942338704	7.5850479350519	18.620813872681
0.53243551979466	10.201846877667	12.209098947488
0.53926161620229	7.7867772286067	5.6478853507844
0.54608771260991	1.4549343223571	2.3285961730325
0.55291380901754	-5.6872607040220	4.0800578157649
0.55973990542516	-10.064474444970	10.218800027945
0.56656600183278	-9.4199882676633	17.843148578913
0.57339209824041	-3.9757183666807	23.247360662135
0.58021819464803	3.6299356659993	23.767403950687
0.58704429105566	9.6190493006751	19.140066258454
0.59387038746328	10.948733368573	11.683546181766
0.60069648387090	6.8541646114618	5.1855939489393
0.60752258027853	-0.72093105555896	3.0315362147066
0.61434867668615	-8.0446233540968	6.4963808009586
0.62117477309378	-11.433344270271	14.061257698255
0.62800086950140	-9.1018257320773	22.117877279452
0.63482696590902	-2.0986835349702	26.735896919838
0.64165306231665	6.1603557313657	25.628506743874
0.64847915872427	11.556396514804	19.334545756310
0.65530525513189	11.318909692475	11.008122043116
0.66213135153952	5.4443043240823	4.8921806425885
0.66895744794714	-3.2429332196110	4.2136793844214
0.67578354435477	-10.445820245351	9.5432913049911
0.68260964076239	-12.517780600469	18.451660530157
0.68943573717001	-8.3052935994747	26.662159132386
0.69626183357764	0.21912264008575	30.154591147212
0.70308792998526	8.8768761554201	27.186264417965
0.70991402639289	13.329007245260	19.216038133412
0.71674012280051	11.247377506552	10.244474335073
0.72356621920813	3.5265047228977	4.8658459679291
0.73039231561576	-6.0921152446747	5.9792492213797
0.73721841202338	-12.830307699327	13.297578641280
0.74404450843101	-13.243626205457	23.418856605595
0.75087060483863	-6.9775125889433	31.459295613887
0.75769670124625	2.9839523540476	33.465723734185
0.76452279765388	11.735493140118	28.417318932400
0.77134889406150	14.862783343135	18.805199764753
0.77817499046912	10.664734433451	9.4670667568389
0.78500108687675	1.0692479880126	5.2198365034241
0.79182718328437	-9.2462618417932	8.4471303122918
0.79865327969200	-15.131440211074	17.847873409528
0.80547937609962	-13.530330588485	28.999522542831
0.81230547250724	-5.0617611377413	36.497048933846
0.81913156891487	6.2014277807996	36.635000190157
0.82595766532249	14.687001979941	29.303834168369
0.83278376173012	16.075760844426	18.132937031924
0.83960985813774	9.4942809493732	8.7662817488015
0.84643595454536	-1.9624695802859	6.0876857297295
0.85326205095299	-12.681023899489	11.757710637609
0.86008814736061	-17.275387077807	23.301775154629
0.86691424376824	-13.288022444938	35.244064182509
0.87374034017586	-2.4940329089627	41.771352957536
0.88056643658348	9.8787687929448	39.633208595053
0.88739253299111	17.676707374171	29.834391366157
0.89421862939873	16.875129649080	17.242467799689
0.90104472580636	7.6475163676293	8.2533181930084
0.90787082221398	-5.6110977903572	7.6314984657269
0.91469691862160	-16.371306633234	16.083590366206
0.92152301502923	-19.178982286263	29.796833626756
0.92834911143685	-12.412519795161	42.225484829883
0.93517520784447	0.80259505740090	47.291628223827
0.94200130425210	14.028304572667	42.438322699412
0.94882740065972	20.643809361761	30.005040719342
0.95565349706735	17.152334813949	16.192432953353
0.96247959347497	5.0169307921274	8.0679850239290
0.96930568988259	-9.9326877178592	10.055202577881
0.97613178629022	-20.293147978977	21.646635456884
0.98295788269784	-20.745869918983	37.517879967622
0.98978397910547	-10.776985628947	50.053164868955
0.99661007551309	4.9271641133028	53.088772180594
1.0034361719207	18.673051489072	45.038377553950
1.0102622683283	23.520170723079	29.820670433923
1.0170883647360	16.774889573160	15.061858736677
1.0239144611436	1.4641963847071	8.3914926775692
1.0307405575512	-15.006764965833	13.626338383183
1.0375666539588	-24.426388582515	28.745933954541
1.0443927503665	-21.859666167013	46.725274057744
1.0512188467741	-8.2177593611446	58.895075035329
1.0580449431817	10.016207822939	59.227705697900
1.0648710395893	23.855792998183	47.435597316168
1.0716971359970	26.227812922974	29.296869646588
1.0785232324046	15.572137641849	13.958392672186
1.0853493288122	-3.2000789418678	9.4682145352214
1.0921754252198	-20.953094348043	18.713278997685
1.0990015216274	-28.758966643182	37.805585637327
1.1058276180351	-22.371873827643	57.803155344737
1.1126537144427	-4.5096981137878	69.015595891150
1.1194798108503	16.270330859766	65.828509799807
1.1263059072579	29.654499393282	49.653078950788
1.1331320036656	28.673911545141	28.462990288389
1.1399581000732	13.309564609025	13.033006728082
1.1467841964808	-9.2525784731457	11.644757356014
1.1536102928884	-27.961518454453	25.852182615267
1.1604363892961	-33.294208971896	49.460843677222
1.1672624857037	-22.079491341833	71.346587438395
1.1740885821113	0.67907458454321	80.843879477475
1.1809146785189	24.002898681288	73.104502583340
1.1877407749266	36.210335145766	51.746580451437
1.1945668713342	30.740773111597	27.367662640940
1.2013929677418	9.6399963448232	12.507822074358
1.2082190641494	-17.126012348262	15.444322254561
1.2150451605571	-36.348613192007	35.875013111150
1.2218712569647	-38.064328320357	64.723680908794
1.2286973533723	-20.681139622551	88.329959070983
1.2355234497799	7.8757312812597	95.106622004842
1.2423495461876	33.735624936724	81.436433922486
1.2491756425952	43.782520619236	53.827416304891
1.2560017390028	32.264717793287	26.089860434427
1.2628278354104	4.0039391549990	12.733010591978
1.2696539318180	-27.550026946845	21.719631979621
1.2764800282257	-46.674516273618	50.174760264032
1.2833061246333	-43.158072300413	85.328702823266
1.2901322210409	-17.684084871957	110.46207067352
1.2969583174485	17.991568993842	113.11081696274
1.3037844138562	46.404082816161	91.532323358334
1.3106105102638	52.867002817562	56.112948843240
1.3174366066714	32.988556222891	24.764872013075
1.3242627030790	-4.5933348702188	14.316456035394
1.3310887994867	-41.869109817294	32.002107596488
1.3379148958943	-60.008404561639	71.316626394106
1.3447409923019	-48.781325123484	114.53951460549
1.3515670887095	-12.180646994091	141.02438862078
1.3583931851172	32.778191569914	137.42009972004
1.3652192815248	63.860836696853	104.81477971440
1.3720453779324	64.492598696133	59.050082076169
1.3788714743400	32.445403272115	23.648775141963
1.3856975707477	-18.147090495899	18.454569533332
1.3925236671553	-62.863518984773	49.409005651993
1.3993497635629	-78.624401027900	104.65455826760
1.4061758599705	-55.412695488928	159.32113499691
1.4130019563781	-2.2248975084144	187.17231249109
1.4198280527858	56.115577096401	173.74669294586
1.4266541491934	90.322546672098	124.52281234174
1.4334802456010	81.087204196361	63.668205566383
1.4403063420086	29.598262701624	23.307432572295
1.4471324384163	-41.413558079074	27.958258071199
1.4539585348239	-97.366626470425	81.537651357772
1.4607846312315	-108.27736191324	163.63446327471
1.4676107276391	-64.317709327942	237.67865299961
1.4744368240468	17.354135580040	267.95413016834
1.4812629204544	98.667636445677	237.76511500308
1.4880890168620	137.78288905404	159.82362354063
1.4949151132696	109.84089037326	72.956527235340
1.5017412096773	21.387405408717	25.412357313206
1.5085673060849	-89.318311863741	51.651000008766
1.5153934024925	-167.77514493193	153.37448691781
1.5222194989001	-168.64688739530	294.60508969294
1.5290455953078	-79.824202525642	414.86319383142
1.5358716917154	66.732072014857	456.23958698301
1.5426977881230	204.27459011177	393.05770028759
1.5495238845306	258.87927841761	250.30347460558
1.5563499809382	184.82359611018	100.64357820130
1.5631760773459	-7.6157407774022	38.533977599595
1.5700021737535	-245.59961426193	140.13702579134
1.5768282701611	-414.08528300933	425.05641571329
1.5836543665687	-397.58884929109	836.79044154032
1.5904804629764	-128.06323828102	1252.4149877106
1.5973065593840	380.38571894115	1520.5945823615
1.6041326557916	1025.3397616502	1515.1554630925
1.6109587521992	1643.2905294679	1184.1527286916
1.6177848486069	2061.9098205112	574.93191588581
1.6246109450145	2158.6500842145	-175.76220141902
1.6314370414221	1903.7383885693	-884.27747339859
1.6382631378297	1371.0974955089	-1380.0604537002
1.6450892342374	712.84007052586	-1561.1144748173
1.6519153306450	106.91654999639	-1424.5238176080
1.6587414270526	-302.35308754662	-1061.3458921312
1.6655675234602	-448.82939299031	-618.94845581673
1.6723936198679	-358.52151113631	-246.15924831056
1.6792197162755	-129.62976400531	-42.505867620339
1.6860458126831	111.51228141412	-30.157755550687
1.6928719090907	260.07429559332	-157.30368184248
1.6996980054984	268.52019063405	-328.88131064519
1.7065241019060	156.02479667900	-450.14454309215
1.7133501983136	-9.5301537651374	-464.62968320815
1.7201762947212	-146.91754087723	-371.90184153639
1.7270023911288	-198.04117306189	-219.98452421852
1.7338284875365	-150.28658478069	-78.279332030210
1.7406545839441	-36.793432893172	-4.4121563402447
1.7474806803517	83.236648057575	-19.800383044434
1.7543067767593	153.71524367505	-103.68064135989
1.7611328731670	146.64757985959	-206.48841689507
1.7679589695746	72.234885723679	-274.93458549597
1.7747850659822	-29.137652012463	-276.58537724759
1.7816111623898	-107.94357648870	-212.93837711094
1.7884372587975	-129.05133709725	-115.98395273396
1.7952633552051	-86.866986929153	-31.058362334339
1.8020894516127	-5.7742348736331	5.1878001026899
1.8089155480203	73.306610145450	-18.740505232745
1.8157416444280	113.12077115428	-85.486617205651
1.8225677408356	97.269125281320	-158.80367759173
1.8293938372432	36.603149462937	-201.70572831006
1.8362199336508	-37.501888584209	-193.87669858280
1.8430460300585	-89.099889901869	-140.26313504653
1.8498721264661	-94.881287474060	-67.327252881834
1.8566982228737	-54.506794770594	-9.3821492533011
1.8635243192813	10.423509496038	8.0583847942746
1.8703504156889	67.705598621645	-20.065721724847
1.8771765120966	90.325832859383	-76.947502326023
1.8840026085042	69.049193081681	-132.92062824080
1.8908287049118	16.000073812410	-160.15036963165
1.8976548013194	-42.055895334721	-145.80055362072
1.9044808977271	-77.097599424553	-97.502827537478
1.9113069941347	-73.268731689339	-38.858098188196
1.9181330905423	-33.955900487692	2.4836920269973
1.9249591869499	20.588421105642	8.2002773501869
1.9317852833576	63.579217174145	-22.294462999646
1.9386113797652	74.763564570063	-72.229306619859
1.9454374761728	49.884575928005	-116.13753581166
1.9522635725804	2.1558314833793	-132.36967610842
1.9590896689881	-44.678898194923	-113.34415425190
1.9659157653957	-68.095372054312	-68.711532900479
1.9727418618033	-57.565848180592	-20.153679082318
1.9795679582109	-19.234299894350	9.4205470256451
1.9863940546186	27.557309642353	6.9287118681264
1.9932201510262	59.974465720587	-24.890209650340
2.0000462474338	62.782963837462	-69.262959543543
2.0068723438414	35.463213117351	-103.86411782993
2.0136984402491	-7.9566600609251	-111.72647822811
2.0205245366567	-46.063980390287	-89.268181188518
2.0273506330643	-60.584527263338	-47.656261058348
2.0341767294719	-45.113010019353	-7.0297019325160
2.0410028258795	-7.8963522308889	13.450105148531
2.0478289222872	32.517518267349	4.8236802788059
2.0546550186948	56.490065616874	-27.592545065840
2.0614811151024	52.803763232497	-67.119112934844
2.0683072115100	23.882254068187	-94.040874479651
2.0751333079177	-15.697380739104	-95.205187581853
2.0819594043253	-46.527799211940	-70.231033667358
2.0887855007329	-53.863963713785	-31.408935560204
2.0956115971405	-34.654280327207	2.5205180314402
2.1024376935482	1.2320235634711	15.572392187580
2.1092637899558	36.051141426857	2.1968482112541
2.1160898863634	52.935662017216	-30.247016518231
2.1229159827710	44.044784836083	-65.312804357842
2.1297420791787	14.184936069657	-85.610543998831
2.1365681755863	-21.761847758010	-81.249289156964
2.1433942719939	-46.239093379966	-54.488455215691
2.1502203684015	-47.574487831597	-18.418202423123
2.1570464648092	-25.531978655080	9.5825847543074
2.1638725612168	8.7764699833435	16.349267558194
2.1706986576244	38.477066525057	-0.75694819451774
2.1775247540320	49.217295346695	-32.747992551899
2.1843508504396	36.087143700338	-63.563433130186
2.1911769468473	5.8472121389537	-77.979314070939
2.1980030432549	-26.539627056854	-68.983299595921
2.2048291396625	-45.300487458120	-41.049326372458
2.2116552360701	-41.522752532383	-7.7882882240892
2.2184813324778	-17.378260778928	14.799402550243
2.2253074288854	15.095619053180	16.130152304743
2.2321335252930	39.986191839915	-3.9004448959959
2.2389596217006	45.291127901179	-35.015847792733
2.2457857181083	28.695628011834	-61.696401596061
2.2526118145159	-1.4351530865283	-70.792679590939
2.2594379109235	-30.264865104498	-57.884458121859
2.2662640073311	-43.782706270762	-29.314533202916
2.2730901037388	-35.604161301034	1.0335181747779
2.2799162001464	-9.9790339243824	18.580985823220
2.2867422965540	20.406595597857	15.152015172848
2.2935683929616	40.702262242157	-7.1276236452903
2.3003944893693	41.141997920427	-36.986652218876
2.3072205857769	21.735896228035	-59.597457057651
2.3140466821845	-7.8461412646748	-63.830260540936
2.3208727785921	-33.087189831312	-47.627123019031
2.3276988749998	-41.740449203606	-18.904172861275
2.3345249714074	-29.765116719283	8.4077254390241
2.3413510678150	-3.2071935413477	21.206509443082
2.3481771642226	24.846950363976	13.588227812887
2.3550032606302	40.711945078679	-10.350932050655
2.3618293570379	36.772294713984	-38.607062996095
2.3686554534455	15.132182625506	-57.189331713106
2.3754815498531	-13.500519822838	-56.951596702512
2.3823076462607	-35.108140540674	-38.002067007461
2.3891337426684	-39.220293298258	-9.5673837522419
2.3959598390760	-23.982814369061	14.581790606493
2.4027859354836	3.0129452308442	22.878062989080
2.4096120318912	28.507672447783	11.574314129194
2.4164381282989	40.080730306162	-13.494596089120
2.4232642247065	32.195557685593	-39.831478900702
2.4300903211141	8.8439273694243	-54.418642431964
2.4369164175217	-18.471945596259	-50.065841499272
2.4437425139294	-36.401097652798	-28.871321336473
2.4505686103370	-36.264664606347	-1.1318097011461
2.4573947067446	-18.253453682612	19.734528408444
2.4642208031522	8.7260162926448	23.750781462427
2.4710468995599	31.451951808781	9.2222950798053
2.4778729959675	38.861760752887	-16.490951235162
2.4846990923751	27.432408813014	-40.620284779702
2.4915251887827	2.8519421458372	-51.247899706311
2.4983512851903	-22.809394264639	-43.113535209019
2.5051773815980	-37.022730280388	-20.141173567554
2.5120034780056	-32.913754221509	6.5265162420882
2.5188295744132	-12.584822438845	24.002480617268
2.5256556708208	13.957978797692	23.950634204682
2.5324817672285	33.726361981796	6.6290794411603
2.5393078636361	37.100830831057	-19.278265284835
2.5461339600437	22.507672765517	-40.938511949601
2.5529600564513	-2.8503055875444	-47.650058520671
2.5597861528590	-26.547216071865	-36.054703516557
2.5666122492666	-37.019710947537	-11.744870200294
2.5734383456742	-29.206164506802	13.502223471006
2.5802644420818	-6.9911573031997	27.496402040401
2.5870905384895	18.724152670290	23.585386093658
2.5939166348971	35.367845274569	3.8815393079801
2.6007427313047	34.839211381199	-21.799365187898
2.6075688277123	17.448114974039	-40.754648108527
2.6143949241200	-8.2625483037380	-43.604370909378
2.6212210205276	-29.711562405795	-28.860388793392
2.6280471169352	-36.432676465605	-3.6307085854917
2.6348732133428	-25.178753302534	19.873421847107
2.6416993097505	-1.4892571367653	30.312118843899
2.6485254061581	23.034751214484	22.751647945827
2.6553515025657	36.408203001059	1.0597119312229
2.6621775989733	32.115099331994	-24.000625356102
