#Parameters = {wakelength=10000; H_cav=30; H_pipe=12; L_cav=20; L_pipe=76; W_cav=30; W_pipe=12; beta=1; cellsperw=20; conductivity=10000000; q=1e-09; sigmaz=5}
#"Frequency / GHz"	"Z (conductivity=1e+07) [Real/Imaginary Part] [Re]"	"Z (conductivity=1e+07) [Real/Imaginary Part] [Im]"
#-------------------------------------------------------------------------------------------------------------------------
0.0000000000000	11.129357262682	-6.3398100012978e-11
0.0020478289222872	-4.6114252158210	10.368172623469
0.0040956578445743	-7.3066095141823	-7.9184349917448
0.0061434867668615	10.673952021852	-2.4581311967991
0.0081913156891487	-1.5310585314746	11.981407267147
0.010239144611436	-9.4008383843550	-4.7797054298920
0.012286973533723	9.3376836892487	-4.6621628223047
0.014334802456010	1.6794924523799	12.685789313651
0.016382631378297	-10.725876931744	-1.1437054031796
0.018430460300585	7.2270850949598	-6.3714481451282
0.020478289222872	4.7611241469259	12.481511795712
0.022526118145159	-11.170553707808	2.7546839658974
0.024573947067446	4.5115320389990	-7.3870413921975
0.026621775989733	7.4634015745452	11.439526816149
0.028669604912020	-10.694285681777	6.6578914243305
0.030717433834308	1.4089975440014	-7.5646196721158
0.032765262756595	9.5644526643193	9.6981017154086
0.034813091678882	-9.3301199330129	10.306467966226
0.036860920601169	-1.8303394136249	-6.8258411269705
0.038908749523456	10.888851507251	7.4526042132679
0.040956578445743	-7.1825468145326	13.459504130526
0.043004407368031	-4.9433163502804	-5.1650375566164
0.045052236290318	11.321866201041	4.9406613568075
0.047100065212605	-4.4198954737049	15.913768237918
0.049147894134892	-7.6743550615411	-2.6503898666922
0.051195723057179	10.819221428059	2.4238964071082
0.053243551979466	-1.2618031346204	17.520127265729
0.055291380901754	-9.7957235922463	0.58058542508780
0.057339209824041	9.4114517999912	0.16757163067426
0.059387038746328	2.0374874397501	18.196113194017
0.061434867668615	-11.125931671661	4.3309636761467
0.063482696590902	7.2025723551987	-1.5803320550401
0.065530525513189	5.2087712877944	17.933443016843
0.067578354435477	-11.544842339108	8.3591476135894
0.069626183357764	4.3629651557070	-2.6090962423486
0.071674012280051	7.9890424696097	16.799939239155
0.073721841202338	-11.004316549729	12.397374765905
0.075769670124625	1.1169965335321	-2.7626741627035
0.077817499046912	10.142602816220	14.935527791641
0.079865327969200	-9.5333788894971	16.172637080752
0.081913156891487	-2.2738893594455	-1.9532417410055
0.083960985813774	11.480464825396	12.542481576154
0.086008814736061	-7.2374924496601	19.428470151082
0.088056643658348	-5.5313843222746	-0.16961116004325
0.090104472580635	11.876537177658	9.8705358286848
0.092152301502923	-4.2916992789891	21.945970336150
0.094200130425210	-8.3823725436443	2.5201599266157
0.096247959347497	11.279250554411	7.1978114327566
0.098295788269784	-0.92818101972595	23.562400957909
0.10034361719207	-10.581110917974	5.9723963294489
0.10239144611436	9.7175138301964	4.8090816729767
0.10443927503665	2.5812078229821	24.185759927544
0.10648710395893	-11.929883330796	9.9776180575179
0.10853493288122	7.3004662813990	2.9727708373518
0.11058276180351	5.9460124221674	23.804174605014
0.11263059072579	-12.296373673239	14.275813982635
0.11467841964808	4.2107167238450	1.9186584749269
0.11672624857037	8.8803475984474	22.489060324075
0.11877407749266	-11.626324973735	18.576410626827
0.12082190641494	0.69148716306855	1.8179900917473
0.12286973533723	11.126535446489	20.391724396868
0.12491756425952	-9.9502586909954	22.581177120848
0.12696539318180	-2.9716085619231	2.7676943995772
0.12901322210409	12.477103412291	17.733298671855
0.13106105102638	-7.3835356682979	26.008674793043
0.13310887994867	-6.4728113373800	4.7801410620663
0.13515670887095	12.793543645292	14.788659149785
0.13720453779324	-4.1194717532093	28.618046956267
0.13925236671553	-9.5109568564400	7.7794181488023
0.14130019563781	12.019986787964	11.865409085520
0.14334802456010	-0.41582407438919	30.230418964425
0.14539585348239	-11.814622048976	11.604791544820
0.14744368240468	10.190618291434	9.2793397091654
0.14949151132696	3.4245279571362	30.745897975229
0.15153934024925	-13.165833413856	16.021289139130
0.15358716917154	7.4299167658056	7.3283647397715
0.15563499809382	7.0773989688020	30.154697038276
0.15768282701611	-13.420189657106	20.736810923652
0.15973065593840	3.9453643225465	6.2669016725824
0.16177848486069	10.223781145278	28.541213591029
0.16382631378297	-12.521646404689	25.424661930158
0.16587414270526	0.012974683212846	6.2829103740633
0.16792197162755	12.576893782993	26.080336588194
0.16996980054984	-10.510512957432	29.749971488753
0.17201762947212	-4.0434844353036	7.4795845107220
0.17406545839441	13.907708538019	23.026100184461
0.17611328731670	-7.5236085842543	33.397725109949
0.17816111623898	-7.8781598478634	9.8633976565384
0.18020894516127	14.066579593991	19.693102018882
0.18225677408356	-3.7863904489207	36.100359247260
0.18430460300585	-11.151716061686	13.339882176053
0.18635243192813	12.999076689555	16.432094250926
0.18840026085042	0.40284738401787	37.662535043487
0.19044808977271	-13.560582150675	17.717698888475
0.19249591869499	10.754437998431	13.601528049003
0.19454374761728	4.6955935918142	37.980700105832
0.19659157653957	-14.864361919029	22.721269612536
0.19863940546186	7.4855103190153	11.537027535028
0.20068723438414	8.7210305724231	37.055816350051
0.20273506330643	-14.909146898312	28.010984712125
0.20478289222872	3.4398640703127	10.521696592993
0.20683072115100	12.117045243004	34.997597432441
0.20887855007329	-13.644338411995	33.209924569938
0.21092637899558	-1.0576277144596	10.759476739724
0.21297420791787	14.561888037039	32.019627216050
0.21502203684015	-11.131394786767	37.934927832399
0.21706986576244	-5.6296741697624	12.354176037311
0.21911769468473	15.803797791155	28.425347125299
0.22116552360701	-7.5432952439235	41.829598319289
0.22321335252930	-9.8770527237411	15.296228337223
0.22526118145159	15.685921370233	24.585539728902
0.22730901037388	-3.1543304351533	44.596557078291
0.22935683929616	-13.412427821292	19.458560889097
0.23140466821845	14.164107932535	20.909038672852
0.23345249714074	1.6793682911018	46.026002162952
0.23550032606302	-15.894746716436	24.602615862724
0.23754815498531	11.315816452964	17.808749306657
0.23959598390760	6.5473787931704	46.018031407371
0.24164381282989	-17.061116351327	30.394248664572
0.24369164175217	7.3387421372185	15.665618831862
0.24573947067446	11.018490395660	44.596424530837
0.24778729959675	-16.753472687292	36.428828793916
0.24983512851903	2.5389628617452	14.793824374301
0.25188295744132	14.677723631844	41.912223108782
0.25393078636361	-14.937291980652	42.263637156106
0.25597861528590	-2.6910693597828	15.410044034307
0.25802644420818	17.163616669480	38.236387627208
0.26007427313047	-11.710342930095	47.455234449212
0.26212210205276	-7.9031567502104	17.609867865116
0.26416993097504	18.202706945030	33.941491186070
0.26621775989733	-7.3002749327941	51.598697213813
0.26826558881962	-12.630374301038	21.353681063085
0.27031341774191	17.637862754018	29.473600362035
0.27236124666419	-2.0505686852199	54.365413389294
0.27440907558648	-16.427578769951	26.463812067320
0.27645690450877	15.447845558455	25.316220447917
0.27850473343106	3.6043650706958	55.535915241476
0.28055256235334	-18.912092705651	32.633742235698
0.28260039127563	11.755687640617	21.949251750525
0.28464822019792	9.1734951851931	55.024865177111
0.28669604912020	-19.800717447071	39.449207678758
0.28874387804249	6.8248142210320	19.806042648750
0.29079170696478	14.150139675602	52.895221497051
0.29283953588707	-18.939957329838	46.419966521979
0.29488736480935	1.0424295918494	19.232510455932
0.29693519373164	18.056498171750	49.360061771743
0.29898302265393	-16.326175437362	53.019884652698
0.30103085157621	-5.1089610182760	20.451919443360
0.30307868049850	20.487811443009	44.771115254105
0.30512650942079	-12.113389803096	58.732367599327
0.30717433834308	-11.089965573442	23.538790569270
0.30922216726536	21.152369573150	39.594248296830
0.31126999618765	-6.6074855562932	63.097257147116
0.31331782510994	-16.349867277261	28.404722815392
0.31536565403222	19.903463154485	34.373588579075
0.31741348295451	-0.24650681440678	65.755165137335
0.31946131187680	-20.375526368232	34.798098257497
0.32150914079909	16.760074880780	29.686712818744
0.32355696972137	6.4319789533943	66.485098342177
0.32560479864366	-22.739515584325	42.318313225919
0.32765262756595	11.913726746085	26.094376562779
0.32970045648823	12.834064434393	65.231744754016
0.33174828541052	-23.143240713348	50.444256588046
0.33379611433281	5.7203826293197	24.089275604054
0.33584394325510	18.360181482094	62.119281457101
0.33789177217738	-21.450596270943	58.575046321082
0.33993960109967	-1.3230918264614	24.047904380479
0.34198743002196	22.458999496989	57.449862254227
0.34403525894424	-17.709096209514	66.080225946809
0.34608308786653	-8.6162065735463	26.190438917583
0.34813091678882	24.679866850065	51.685969573131
0.35017874571111	-12.155421376953	72.355364597265
0.35222657463339	-15.503682721276	30.552418883222
0.35427440355568	24.719171428584	45.417366985937
0.35632223247797	-5.2043607610460	76.878423657433
0.35837006140025	-21.331810865721	36.971526148591
0.36041789032254	22.455955810655	39.314753401105
0.36246571924483	2.5790386286611	79.261768818525
0.36451354816712	-25.507969793661	45.091507385662
0.36656137708940	17.973105247860	34.073493880362
0.36860920601169	10.522374382352	79.295105606868
0.37065703493398	-27.557824564019	54.383774270869
0.37270486385627	11.561228616975	30.351944174549
0.37475269277855	17.900968122487	76.974739543153
0.37680052170084	-27.175227437983	64.185960637619
0.37884835062313	3.7040862055888	28.709591461310
0.38089617954541	24.000892238888	72.515892770610
0.38294400846770	-24.259758142896	73.754647722990
0.38499183738999	-4.9543945237007	29.550586055048
0.38703966631228	28.184588289152	66.345944195323
0.38908749523456	-18.937787567000	82.328665351100
0.39113532415685	-13.659443533123	33.078013149257
0.39318315307914	29.953464172313	59.078037017785
0.39523098200142	-11.564280398258	89.197631611200
0.39727881092371	-21.607847373335	39.263769859523
0.39932663984600	29.001689013255	51.466344348617
0.40137446876829	-2.7039912786915	93.770053136194
0.40342229769057	-28.018302543684	47.837482869546
0.40547012661286	25.255573292047	44.345857634584
0.40751795553515	6.9075499176121	95.634715122724
0.40956578445743	-32.204219621168	58.296821799283
0.41161361337972	18.894470148243	38.561232699622
0.41366144230201	16.420741795027	94.609491489815
0.41570927122430	-33.642187812213	69.939532472120
0.41775710014658	10.349862731221	34.890411271094
0.41980492906887	24.942709057290	90.772410666500
0.42185275799116	-32.030048257706	81.915453659035
0.42390058691344	0.28162414507585	33.969556859199
0.42594841583573	31.616129150616	84.471083757021
0.42799624475802	-27.328394956167	93.295378424193
0.43004407368031	-10.467976202953	36.226289449374
0.43209190260259	35.700102707628	76.308238593701
0.43413973152488	-19.780906610203	103.15138274275
0.43618756044717	-20.939687015097	41.827344362921
0.43823538936945	36.645330092075	67.103318560581
0.44028321829174	-9.9103521874975	110.64215286148
0.44233104721403	-30.137588839264	50.646934310607
0.44437887613632	34.157013204087	57.831874550612
0.44642670505860	1.5110427914181	115.09616571502
0.44847453398089	-37.117826762097	62.259216174752
0.45052236290318	28.238581121643	49.546958358908
0.45257019182546	13.515708991937	116.08482288011
0.45461802074775	-41.078604393329	75.957809636008
0.45666584967004	19.211464958938	43.288311138551
0.45871367859233	25.016229192026	113.47854499375
0.46076150751461	-41.443207756227	90.801885996256
0.46280933643690	7.7072869596567	39.986591725227
0.46485716535919	34.896679909609	107.47963560698
0.46690499428147	-37.928392137803	105.68665760166
0.46895282320376	-5.3684942377402	40.371242881228
0.47100065212605	42.112871997081	98.627303981988
0.47304848104834	-30.590791394235	119.43365665516
0.47509630997062	-18.900296663978	44.889995341253
0.47714413889291	45.793011231339	87.772773019923
0.47919196781520	-19.845918492427	130.89397910762
0.48123979673749	-31.649428518944	53.648367936092
0.48328762565977	45.329861739648	76.024372942753
0.48533545458206	-6.4561436877030	139.05615838637
0.48738328350435	-42.358550399170	66.375878204176
0.48943111242663	40.455667677351	64.665719128928
0.49147894134892	8.5135929979558	143.14954863418
0.49352677027121	-49.865180317946	82.423595303919
0.49557459919350	31.291836172727	55.052103441581
0.49762242811578	23.770359795786	142.73353249292
0.49967025703807	-53.215159853799	100.79584360213
0.50171808596036	18.367366534028	48.493088470471
0.50376591488264	37.893982808906	137.76385668043
0.50581374380493	-51.765602689446	120.21534510031
0.50786157272722	2.6020135729755	46.130328306824
0.50990940164951	49.456652763005	128.62833846291
0.51195723057179	-45.267964691856	139.21873578147
0.51400505949408	-14.746828402338	48.821406067940
0.51605288841637	57.152421234972	116.14690947471
0.51810071733865	-33.922079420991	156.27609876964
0.52014854626094	-32.171447864744	57.040201273970
0.52219637518323	59.925803542642	101.53307619723
0.52424420410552	-18.394382442849	169.92593643280
0.52629203302780	-48.030433880574	70.803701560882
0.52833986195009	57.088289593331	86.317551833503
0.53038769087238	0.20380752455559	178.91490348312
0.53243551979466	-60.686331866416	89.633819187009
0.53448334871695	48.411550231177	72.237716450398
0.53653117763924	20.379300481356	182.33058757627
0.53857900656153	-68.654216254862	112.56008108882
0.54062683548381	34.187670124199	61.099998749313
0.54267466440610	40.358772553864	179.71523851563
0.54472249332839	-70.749008971311	138.16624474061
0.54677032225067	15.248395704430	54.625088170977
0.54881815117296	58.223896642461	171.14933543272
0.55086598009525	-66.218902828371	164.68020160551
0.55291380901754	-7.0610670612024	54.287685782309
0.55496163793982	72.070362223580	157.29540253122
0.55700946686211	-54.852357020437	190.10288101035
0.55905729578440	-30.955495154452	61.164472420689
0.56110512470668	80.179518906450	139.39543566933
0.56315295362897	-37.047364163174	212.36858022331
0.56520078255126	-54.327478216939	75.803575800551
0.56724861147355	81.189149341979	119.21825987502
0.56929644039583	-13.834518976389	229.52557042039
0.57134426931812	-74.903472638272	98.128365114289
0.57339209824041	74.248669179627	98.957782992535
0.57543992716269	13.152294511401	239.92376309057
0.57748775608498	-90.428126967755	127.38654319702
0.57953558500727	59.145182517336	81.086165065327
0.58158341392956	41.758661109753	242.39450240749
0.58363124285184	-98.863982638398	162.15237065817
0.58567907177413	36.387130402532	68.171120063040
0.58772690069642	69.444095799213	236.40753858619
0.58977472961871	-98.591475111303	200.38625862163
0.59182255854099	7.2358909541622	62.669003177509
0.59387038746328	93.460820177251	222.19063961932
0.59591821638557	-88.593194891779	239.55182811442
0.59796604530785	-26.321720917655	66.708733327820
0.60001387423014	111.06653447752	200.80005011732
0.60206170315243	-68.606735113973	276.78576169020
0.60410953207472	-61.661961560917	81.883370257267
0.60615736099700	119.75684062817	174.13238250578
0.60820518991929	-39.231713970148	309.11178267323
0.61025301884158	-95.671949367744	109.06620523905
0.61230084776386	117.50103803573	144.87384807426
0.61434867668615	-1.9795496018117	333.68614786209
0.61639650560844	-124.94919492357	148.26787636727
0.61844433453073	102.96377588786	116.38668403515
0.62049216345301	40.741475816973	348.05891098149
0.62253999237530	-146.04155305274	198.54876008852
0.62458782129759	75.694972343816	92.538246966895
0.62663565021987	85.708960698740	350.43424465628
0.62868347914216	-155.71263968397	257.99715984740
0.63073130806445	36.272944542762	77.483839805977
0.63277913698674	129.03374019685	339.91242666070
0.63482696590902	-151.21425572910	323.78020043939
0.63687479483131	-13.611613487578	75.418781095071
0.63892262375360	166.36397462842	316.69831201126
0.64097045267588	-130.54727726762	392.26829782301
0.64301828159817	-71.137922740895	90.320915143778
0.64506611052046	193.13198440407	282.26494963999
0.64711393944275	-92.691754877782	459.22950997913
0.64916176836503	-132.40439614470	125.70756992831
0.65120959728732	204.82397288659	239.46809272649
0.65325742620961	-37.789662490630	520.08464262022
0.65530525513189	-192.53752957707	184.43615545117
0.65735308405418	197.24858437371	192.61777589724
0.65940091297647	32.731734253309	570.20867705336
0.66144874189876	-245.84236323109	268.58267643395
0.66349657082104	166.77312983907	147.52889566148
0.66554439974333	116.10151322315	605.26265569913
0.66759222866562	-285.96210914769	379.44056362109
0.66964005758790	110.48991735846	111.60151367152
0.67168788651019	208.20608026900	621.53667073052
0.67373571543248	-305.99088520608	517.70309454600
0.67578354435477	26.260152971108	94.030236374665
0.67783137327705	303.62705919807	616.28930964374
0.67987920219934	-298.43945343484	683.93524036732
0.68192703112163	-87.448479359300	106.34829550080
0.68397486004391	395.65999827278	588.07632268271
0.68602268896620	-254.85545911851	879.55461993978
0.68807051788849	-232.09325851680	163.75655819567
0.69011834681078	476.18803782330	537.08470561797
0.69216617573306	-164.65324528538	1108.8369807834
0.69421400465535	-410.33942992398	288.34154942495
0.69626183357764	535.09296588745	465.55393097264
0.69830966249993	-11.977458063948	1383.3514746680
0.70035749142221	-629.16452720250	517.29622676626
0.70240532034450	558.28104726609	378.56683870485
0.70445314926679	233.10433407248	1733.3308178558
0.70650097818907	-908.42515775226	926.74416252896
0.70854880711136	520.97481608808	286.29805233118
0.71059663603365	643.98637147574	2244.1717760916
0.71264446495594	-1311.1196966030	1718.5015035072
0.71469229387822	359.42932991971	213.28115557727
0.71674012280051	1475.3576338541	3225.0905688424
0.71878795172280	-2110.3426387969	3707.7142282003
0.72083578064508	-234.16357732261	266.66783952537
0.72288360956737	4608.9220420677	6953.8640733588
0.72493143848966	-7117.0584498029	18484.207041751
0.72697926741195	40922.193880324	-7360.0749846118
0.72902709633423	-8584.5406081701	-9690.0120684725
0.73107492525652	2178.6825233197	-8839.1329785136
0.73312275417881	1990.4481778613	-759.05187638700
0.73517058310109	-2273.0629731964	-1814.0773915338
0.73721841202338	339.76827595497	-3821.7591710677
0.73926624094567	1358.5569107861	-710.49422378491
0.74131406986796	-1166.0560767867	-631.44773639887
0.74336189879024	-160.19106459747	-2414.9304804754
0.74540972771253	1066.5826739600	-757.45881474426
0.74745755663482	-634.33698699845	-192.06428157843
0.74950538555710	-386.36657565174	-1684.7685355108
0.75155321447939	848.21286293381	-809.87543839095
0.75360104340168	-294.02913813245	-2.9090158716652
0.75564887232397	-493.99525821259	-1201.6343005503
0.75769670124625	653.97764349880	-846.37213325617
0.75974453016854	-51.609735067840	64.307267885851
0.76179235909083	-530.19425053333	-842.48290579282
0.76384018801311	471.97115821096	-858.75429143489
0.76588801693540	125.00075357784	60.923400218972
0.76793584585769	-516.08690673830	-561.57171460038
0.76998367477998	301.26554990031	-843.90276732630
0.77203150370226	249.18032562283	14.222908206449
0.77407933262455	-464.66982013014	-339.57351329933
0.77612716154684	144.85825813575	-801.72141578530
0.77817499046912	327.83810107057	-57.929224729725
0.78022281939141	-386.13225153388	-167.55663300952
0.78227064831370	7.0150798431803	-734.36057129982
0.78431847723599	365.85180510888	-142.12462555840
0.78636630615827	-289.63741854461	-40.723916722840
