#Parameters = {wakelength=10000; H_cav=30; H_pipe=12; L_cav=20; L_pipe=76; W_cav=30; W_pipe=12; beta=1; cellsperw=20; conductivity=100; q=1e-09; sigmaz=5}
#"Frequency / GHz"	"Z (conductivity=100) [Real/Imaginary Part] [Re]"	"Z (conductivity=100) [Real/Imaginary Part] [Im]"
#---------------------------------------------------------------------------------------------------------------------
0.0000000000000	-4.1051411581478e-06	-4.8264501393849e-11
0.0020478289222872	0.15329559409472	0.84796935360410
0.0040956578445743	0.48216180306875	1.4914217235741
0.0061434867668615	0.80459809830231	1.9434670837989
0.0081913156891487	1.0579659060186	2.2957525488663
0.010239144611436	1.2477360096706	2.6092135304386
0.012286973533723	1.3927178781987	2.9114236891391
0.014334802456010	1.5085108628638	3.2129031941913
0.016382631378297	1.6056677873338	3.5169459022784
0.018430460300585	1.6909449884746	3.8240115248476
0.020478289222872	1.7686128818425	4.1335722722395
0.022526118145159	1.8413456111531	4.4448412932031
0.024573947067446	1.9108184505433	4.7570312689665
0.026621775989733	1.9780903332074	5.0694728801536
0.028669604912020	2.0438065482260	5.3816448634554
0.030717433834308	2.1083472530444	5.6931392708218
0.032765262756595	2.1719451753100	6.0036581538778
0.034813091678882	2.2347234695673	6.3130113713207
0.036860920601169	2.2967285473930	6.6210708090716
0.038908749523456	2.3579843431823	6.9277594997423
0.040956578445743	2.4184934969863	7.2330624143935
0.043004407368031	2.4782326401820	7.5369911821675
0.045052236290318	2.5371880517649	7.8395704417474
0.047100065212605	2.5953525446062	8.1408589304173
0.049147894134892	2.6527048447778	8.4409258006399
0.051195723057179	2.7092367453343	8.7398326263199
0.053243551979466	2.7649556297655	9.0376593955734
0.055291380901754	2.8198567091559	9.3344918888737
0.057339209824041	2.8739431281209	9.6303984721524
0.059387038746328	2.9272365373925	9.9254561366737
0.061434867668615	2.9797467656028	10.219748612892
0.063482696590902	3.0314841626646	10.513339079104
0.065530525513189	3.0824782319065	10.806292629109
0.067578354435477	3.1327484625377	11.098684294583
0.069626183357764	3.1823080306897	11.390569344878
0.071674012280051	3.2311887052504	11.681999271687
0.073721841202338	3.2794155546905	11.973038600402
0.075769670124625	3.3270016202080	12.263735413592
0.077817499046912	3.3739768192503	12.554129073412
0.079865327969200	3.4203689418268	12.844274015969
0.081913156891487	3.4661896852811	13.134213102413
0.083960985813774	3.5114647755553	13.423976169461
0.086008814736061	3.5562229943206	13.713608506384
0.088056643658348	3.6004746786704	14.003149461036
0.090104472580635	3.6442400976168	14.292621949846
0.092152301502923	3.6875475680275	14.582063146641
0.094200130425210	3.7304065062676	14.871510425881
0.096247959347497	3.7728315264188	15.160982564871
0.098295788269784	3.8148497549838	15.450509625584
0.10034361719207	3.8564706219798	15.740127626690
0.10239144611436	3.8977033483128	16.029853319678
0.10443927503665	3.9385730156847	16.319710624757
0.10648710395893	3.9790899635847	16.609734497510
0.10853493288122	4.0192589047791	16.899941387057
0.11058276180351	4.0591021856867	17.190349816287
0.11263059072579	4.0986315337224	17.480993356527
0.11467841964808	4.1378479997354	17.771889555370
0.11672624857037	4.1767705029845	18.063052679154
0.11877407749266	4.2154125617010	18.354514605842
0.12082190641494	4.2537729220456	18.646294959811
0.12286973533723	4.2918667579271	18.938404726805
0.12491756425952	4.3297094400056	19.230873285761
0.12696539318180	4.3672985070701	19.523722629284
0.12901322210409	4.4046448058227	19.816961596582
0.13106105102638	4.4417650681721	20.110616680558
0.13310887994867	4.4786568501664	20.404712566816
0.13515670887095	4.5153267041304	20.699257267853
0.13720453779324	4.5517922570345	20.994273973867
0.13925236671553	4.5880522889443	21.289789804760
0.14130019563781	4.6241093364314	21.585813048360
0.14334802456010	4.6599811448415	21.882363196184
0.14539585348239	4.6956684815615	22.179469144348
0.14744368240468	4.7311701263506	22.477140610374
0.14949151132696	4.7665029626629	22.775393607504
0.15153934024925	4.8016705143431	23.074258247138
0.15358716917154	4.8366687766322	23.373746640958
0.15563499809382	4.8715130403527	23.673871394696
0.15768282701611	4.9062098373510	23.974662624213
0.15973065593840	4.9407529878423	24.276135445788
0.16177848486069	4.9751550939766	24.578299807521
0.16382631378297	5.0094256984986	24.881185156330
0.16587414270526	5.0435577037025	25.184810192588
0.16792197162755	5.0775605266594	25.489182923645
0.16996980054984	5.1114463825189	25.794331051923
0.17201762947212	5.1452082183827	26.100276967446
0.17406545839441	5.1788517548161	26.407027862764
0.17611328731670	5.2123913550763	26.714609035064
0.17816111623898	5.2458212087399	27.023046350761
0.18020894516127	5.2791432009722	27.332347193622
0.18225677408356	5.3123729219306	27.642533866193
0.18430460300585	5.3455067105681	27.953635287380
0.18635243192813	5.3785428139555	28.265660205432
0.18840026085042	5.4114970775666	28.578627627887
0.19044808977271	5.4443686873161	28.892568767876
0.19249591869499	5.4771526732620	29.207494896950
0.19454374761728	5.5098641908255	29.523421879653
0.19659157653957	5.5425059297712	29.840382215634
0.19863940546186	5.5750704406854	30.158390392768
0.20068723438414	5.6075709717665	30.477459427664
0.20273506330643	5.6400137585509	30.797622211368
0.20478289222872	5.6723899040595	31.118897252720
0.20683072115100	5.7047099841115	31.441295379438
0.20887855007329	5.7369836372605	31.764848720886
0.21092637899558	5.7692015215057	32.089580127882
0.21297420791787	5.8013707879819	32.415499264514
0.21502203684015	5.8335040688361	32.742636650161
0.21706986576244	5.8655928576209	33.071019489248
0.21911769468473	5.8976405339754	33.400657276221
0.22116552360701	5.9296618918087	33.731578032440
0.22321335252930	5.9616502225334	34.063812996023
0.22526118145159	5.9936049753504	34.397372804837
0.22730901037388	6.0255421641214	34.732282580401
0.22935683929616	6.0574579170382	35.068576979908
0.23140466821845	6.0893480316372	35.406268935433
0.23345249714074	6.1212285906287	35.745380473346
0.23550032606302	6.1530992830491	36.085948822873
0.23754815498531	6.1849528866918	36.427990280634
0.23959598390760	6.2168043604147	36.771523864938
0.24164381282989	6.2486572443607	37.116588328687
0.24369164175217	6.2805021027264	37.463204373597
0.24573947067446	6.3123517904694	37.811388673378
0.24778729959675	6.3442139593803	38.161180335434
0.24983512851903	6.3760781035269	38.512604883757
0.25188295744132	6.4079538805383	38.865677342411
0.25393078636361	6.4398525370438	39.220436154275
0.25597861528590	6.4717636630798	39.576912205049
0.25802644420818	6.5036932515566	39.935120171998
0.26007427313047	6.5356558046430	40.295096804158
0.26212210205276	6.5676423635183	40.656877982557
0.26416993097504	6.5996547331431	41.020479076536
0.26621775989733	6.6317094782188	41.385934420022
0.26826558881962	6.6638001277003	41.753284636205
0.27031341774191	6.6959243614094	42.122547297271
0.27236124666419	6.7280997586652	42.493753968970
0.27440907558648	6.7603234024224	42.866949254651
0.27645690450877	6.7925892958600	43.242154162125
0.27850473343106	6.8249146896559	43.619397353632
0.28055256235334	6.8573007712163	43.998726477057
0.28260039127563	6.8897386334526	44.380167351932
0.28464822019792	6.9222441479327	44.763746171425
0.28669604912020	6.9548231397198	45.149512321515
0.28874387804249	6.9874648458094	45.537497129446
0.29079170696478	7.0201824437812	45.927724908705
0.29283953588707	7.0529861648038	46.320245559129
0.29488736480935	7.0858644996019	46.715096586348
0.29693519373164	7.1188268593133	47.112301659936
0.29898302265393	7.1518874354796	47.511910309185
0.30103085157621	7.1850355621699	47.913966651547
0.30307868049850	7.2182765660197	48.318495017490
0.30512650942079	7.2516279287815	48.725543349278
0.30717433834308	7.2850810627574	49.135161964469
0.30922216726536	7.3186367234776	49.547377376376
0.31126999618765	7.3523145028844	49.962235463524
0.31331782510994	7.3861092575108	50.379792273631
0.31536565403222	7.4200174343327	50.800077955731
0.31741348295451	7.4540592941155	51.223135908314
0.31946131187680	7.4882339250764	51.649027091166
0.32150914079909	7.5225340011244	52.077787011237
0.32355696972137	7.5569791767386	52.509456912603
0.32560479864366	7.5915736244248	52.944101526650
0.32765262756595	7.6263073065042	53.381762896273
0.32970045648823	7.6611978587681	53.822480611217
0.33174828541052	7.6962547365833	54.266321869595
0.33379611433281	7.7314664416847	54.713336218049
0.33584394325510	7.7668472867217	55.163562576906
0.33789177217738	7.8024116670885	55.617069354926
0.33993960109967	7.8381479908637	56.073914364318
0.34198743002196	7.8740662986291	56.534137467072
0.34403525894424	7.9101854073319	56.997807304030
0.34608308786653	7.9464953913173	57.464990195935
0.34813091678882	7.9830016030258	57.935728563137
0.35017874571111	8.0197262886378	58.410090272297
0.35222657463339	8.0566626531159	58.888149817069
0.35427440355568	8.0938111548021	59.369954029163
0.35632223247797	8.1311960735016	59.855569564149
0.35837006140025	8.1688150925200	60.345078485938
0.36041789032254	8.2066641373247	60.838533928719
0.36246571924483	8.2447679232911	61.336001349700
0.36451354816712	8.2831296339277	61.837569517130
0.36656137708940	8.3217416200890	62.343299722297
0.36860920601169	8.3606275325206	62.853256634350
0.37065703493398	8.3997966026876	63.367534387757
0.37270486385627	8.4392386782271	63.886203987487
0.37475269277855	8.4789747228351	64.409330543726
0.37680052170084	8.5190202300802	64.937012475194
0.37884835062313	8.5593643193224	65.469331768746
0.38089617954541	8.6000241174440	66.006355458179
0.38294400846770	8.6410210706385	66.548184965518
0.38499183738999	8.6823454253255	67.094913932728
0.38703966631228	8.7240095424418	67.646613122594
0.38908749523456	8.7660397767090	68.203385851386
0.39113532415685	8.8084291102248	68.765337789160
0.39318315307914	8.8511846030813	69.332545954278
0.39523098200142	8.8943363262083	69.905115164091
0.39727881092371	8.9378819120848	70.483163022348
0.39932663984600	8.9818233595025	71.066775254761
0.40137446876829	9.0261929569430	71.656058031037
0.40342229769057	9.0709945482020	72.251140191727
0.40547012661286	9.1162257141171	72.852118486546
0.40751795553515	9.1619189655694	73.459100842296
0.40956578445743	9.2080851830588	74.072226591978
0.41161361337972	9.2547187001590	74.691606213897
0.41366144230201	9.3018507114268	75.317350833820
0.41570927122430	9.3495000765073	75.949609190786
0.41775710014658	9.3976597416566	76.588507302743
0.41980492906887	9.4463578465270	77.234161066274
0.42185275799116	9.4956209585805	77.886727522970
0.42390058691344	9.5454424566814	78.546350141877
0.42594841583573	9.5958461669342	79.213152376887
0.42799624475802	9.6468660491844	79.887298892162
0.43004407368031	9.6984983800595	80.568951765705
0.43209190260259	9.7507618962427	81.258244845573
0.43413973152488	9.8036966952016	81.955349943852
0.43618756044717	9.8573041339546	82.660448691433
0.43823538936945	9.9115978394982	83.373688952174
0.44028321829174	9.9666227862459	84.095249782177
0.44233104721403	10.022387606925	84.825332377514
0.44437887613632	10.078901038471	85.564102060655
0.44642670505860	10.136210686478	86.311746196887
0.44847453398089	10.194334157723	87.068485989861
0.45052236290318	10.253276842112	87.834508306127
0.45257019182546	10.313087385893	88.610010487710
0.45461802074775	10.373793725116	89.395233248459
0.45666584967004	10.435399574459	90.190388560050
0.45871367859233	10.497952540963	90.995686558834
0.46076150751461	10.561491511044	91.811387507942
0.46280933643690	10.626021059003	92.637732238245
0.46485716535919	10.691586475252	93.474947503665
0.46690499428147	10.758237968758	94.323313037851
0.46895282320376	10.825983866518	95.183101345305
0.47100065212605	10.894865760388	96.054560161504
0.47304848104834	10.964944141192	96.937989432270
0.47509630997062	11.036233946186	97.833696643359
0.47714413889291	11.108772838010	98.741956457675
0.47919196781520	11.182630748719	99.663090761776
0.48123979673749	11.257832728058	100.59744469875
0.48328762565977	11.334413372183	101.54532596757
0.48533545458206	11.412450682064	102.50708062905
0.48738328350435	11.491982679539	103.48309356294
0.48943111242663	11.573042023494	104.47371220592
0.49147894134892	11.655712673448	105.47931084066
0.49352677027121	11.740048087014	106.50031692768
0.49557459919350	11.826081608138	107.53712533274
0.49762242811578	11.913901784308	108.59014403833
0.49967025703807	12.003579665740	109.65984564576
0.50171808596036	12.095152366112	110.74668012672
0.50376591488264	12.188711434750	111.85109669484
0.50581374380493	12.284347159286	112.97361705074
0.50786157272722	12.382105038147	114.11475454261
0.50990940164951	12.482079244293	115.27500850813
0.51195723057179	12.584380138876	116.45495411433
0.51400505949408	12.689066131942	117.65517659864
0.51605288841637	12.796234080913	118.87623690090
0.51810071733865	12.906014982964	120.11877042039
0.52014854626094	13.018485846614	121.38344349182
0.52219637518323	13.133747823656	122.67089179725
0.52424420410552	13.251952507592	123.98181968055
0.52629203302780	13.373201187879	125.31698487120
0.52833986195009	13.497602480373	126.67711355717
0.53038769087238	13.625328855141	128.06299079324
0.53243551979466	13.756512036419	129.47547728584
0.53448334871695	13.891273182861	130.91540769357
0.53653117763924	14.029806373640	132.38366275159
0.53857900656153	14.172279640895	133.88121932646
0.54062683548381	14.318832756715	135.40904124828
0.54267466440610	14.469682370482	136.96812524306
0.54472249332839	14.625039253241	138.55958184476
0.54677032225067	14.785071237924	140.18452842147
0.54881815117296	14.950021111422	141.84410254532
0.55086598009525	15.120149202713	143.53956907684
0.55291380901754	15.295662373211	145.27222665991
0.55496163793982	15.476834615455	147.04338505309
0.55700946686211	15.663983038045	148.85449054283
0.55905729578440	15.857367180684	150.70705646364
0.56110512470668	16.057300907867	152.60260394014
0.56315295362897	16.264167110100	154.54279547046
0.56520078255126	16.478294669867	156.52939898255
0.56724861147355	16.700050099868	158.56419521954
0.56929644039583	16.929893282783	160.64910791143
0.57134426931812	17.168242461694	162.78620869368
0.57339209824041	17.415535046010	164.97759784852
0.57543992716269	17.672322954290	167.22551878609
0.57748775608498	17.939138003021	169.53240834740
0.57953558500727	18.216513462527	171.90076139476
0.58158341392956	18.505114275418	174.33321791094
0.58363124285184	18.805616885828	176.83265902453
0.58567907177413	19.118685681271	179.40206819697
0.58772690069642	19.445128809293	182.04458115642
0.58977472961871	19.785806424109	184.76362500624
0.59182255854099	20.141560798885	187.56279155669
0.59387038746328	20.513386061442	190.44584298115
0.59591821638557	20.902377939127	193.41688683792
0.59796604530785	21.309620459328	196.48027811530
0.60001387423014	21.736355558371	199.64057798912
0.60206170315243	22.183985627152	202.90275411238
0.60410953207472	22.653924668144	206.27212766463
0.60615736099700	23.147752199244	209.75428774850
0.60820518991929	23.667276574866	213.35530425732
0.61025301884158	24.214363949505	217.08173571552
0.61230084776386	24.791062041362	220.94050790373
0.61434867668615	25.399728692984	224.93912488767
0.61639650560844	26.042856618140	229.08575104993
0.61844433453073	26.723154349836	233.38906957272
0.62049216345301	27.443740444614	237.85847889644
0.62253999237530	28.207987720291	242.50426033319
0.62458782129759	29.019554061177	247.33743891266
0.62663565021987	29.882638733456	252.36995541260
0.62868347914216	30.801873946499	257.61492932450
0.63073130806445	31.782306248048	263.08655404836
0.63277913698674	32.829710807101	268.80024197710
0.63482696590902	33.950564221886	274.77299142351
0.63687479483131	35.151988884926	281.02335812440
0.63892262375360	36.442123107562	287.57158379627
0.64097045267588	37.830218010541	294.44007981912
0.64301828159817	39.326577203773	301.65353132048
0.64506611052046	40.942991989564	309.23903986139
0.64711393944275	42.693021588325	317.22674758826
0.64916176836503	44.591992663965	325.65015205415
0.65120959728732	46.657536870932	334.54632818783
0.65325742620961	48.910149232238	343.95674372736
0.65530525513189	51.373373293756	353.92790144289
0.65735308405418	54.074545054673	364.51176330085
0.65940091297647	57.045805625906	375.76686288975
0.66144874189876	60.324721754910	387.75946254350
0.66349657082104	63.955493562385	400.56440671304
0.66554439974333	67.990793829125	414.26675067501
0.66759222866562	72.493359904256	428.96375858555
0.66964005758790	77.538302498153	444.76660198165
0.67168788651019	83.216646624605	461.80294015583
0.67373571543248	89.639147042418	480.22034503360
0.67578354435477	96.941330234878	500.18960164708
0.67783137327705	105.29099665291	521.90906578269
0.67987920219934	114.89751531212	545.61053283934
0.68192703112163	126.02411909489	571.56537996792
0.68397486004391	139.00581331366	600.09194876027
0.68602268896620	154.27362464271	631.56505410262
0.68807051788849	172.38798421892	666.42582054531
0.69011834681078	194.08756019101	705.19155661822
0.69216617573306	220.35956701858	748.46527811460
0.69421400465535	252.54162547187	796.93894274945
0.69626183357764	292.47438514009	851.38074875166
0.69830966249993	342.73094472731	912.58835236595
0.70035749142221	406.96143505771	981.26316905789
0.70240532034450	490.41132066702	1057.7113420839
0.70445314926679	600.67667179490	1141.1740966154
0.70650097818907	748.70104652067	1228.3632454837
0.70854880711136	949.72146803963	1310.3449589345
0.71059663603365	1222.7555043401	1366.3012508902
0.71264446495594	1583.9378565432	1352.8943959400
0.71469229387822	2022.6999742213	1194.1633238916
0.71674012280051	2452.4924831532	800.99041104379
0.71878795172280	2687.8781245297	170.08257193694
0.72083578064508	2579.0926659866	-513.50618340335
0.72288360956737	2197.1705005798	-1010.7901158226
0.72493143848966	1741.0436017891	-1251.8667687467
0.72697926741195	1341.5525992678	-1308.7731837171
0.72902709633423	1033.0337262139	-1269.7354764344
0.73107492525652	805.26887343371	-1191.1739347278
0.73312275417881	638.48082222198	-1101.5961424471
0.73517058310109	515.34500955823	-1013.6728796425
0.73721841202338	423.08914862431	-932.34497827486
0.73926624094567	352.80126761139	-859.03988814268
0.74131406986796	298.34531741974	-793.68004630160
0.74336189879024	255.47967824049	-735.60545854037
0.74540972771253	221.23914717887	-683.98471930471
0.74745755663482	193.52002645554	-637.99034557378
0.74950538555710	170.80597518952	-596.86820102397
0.75155321447939	151.98757554728	-559.95792818254
0.75360104340168	136.24089893559	-526.69170151424
0.75564887232397	122.94487532445	-496.58605898011
0.75769670124625	111.62559469071	-469.23114399098
0.75974453016854	101.91711039339	-444.27903422270
0.76179235909083	93.533113328755	-421.43403944107
0.76384018801311	86.247503985938	-400.44459467713
0.76588801693540	79.880229448803	-381.09550914127
0.76793584585769	74.286146428478	-363.20196353672
0.76998367477998	69.347382010693	-346.60504277081
0.77203150370226	64.967787930356	-331.16725971096
0.77407933262455	61.067990186340	-316.76900935246
0.77612716154684	57.581995095060	-303.30625691590
0.77817499046912	54.454948599405	-290.68800554109
0.78022281939141	51.640713603242	-278.83409606343
0.78227064831370	49.100134983299	-267.67402737887
0.78431847723599	46.800169273848	-257.14554775028
0.78636630615827	44.712633579766	-247.19318711508
0.78841413508056	42.813163660002	-237.76764367147
0.79046196400285	41.080928919488	-228.82504388936
0.79250979292513	39.497994430760	-220.32589783872
0.79455762184742	38.048591278298	-212.23474807798
0.79660545076971	36.719069107246	-204.51983872093
