#Parameters = {wakelength=10000; H_cav=30; H_pipe=12; L_cav=20; L_pipe=76; W_cav=30; W_pipe=12; beta=1; cellsperw=20; conductivity=1000; q=1e-09; sigmaz=5}
#"Frequency / GHz"	"Z (conductivity=1000) [Real/Imaginary Part] [Re]"	"Z (conductivity=1000) [Real/Imaginary Part] [Im]"
#-----------------------------------------------------------------------------------------------------------------------
0.0000000000000	-0.18529381200373	-4.8280393743122e-11
0.0020478289222872	0.12673788042200	0.26906523343935
0.0040956578445743	0.28601552752833	0.94524856782530
0.0061434867668615	0.093180279517895	1.1702276220419
0.0081913156891487	0.37156470580955	1.1998232927396
0.010239144611436	0.57529292767942	1.7354809416644
0.012286973533723	0.31148582315434	2.0091681649095
0.014334802456010	0.45824018670662	1.9747239520246
0.016382631378297	0.71008417283261	2.4508614936011
0.018430460300585	0.44735228444331	2.8230465707894
0.020478289222872	0.48579171608781	2.7721321891303
0.022526118145159	0.78706997859945	3.1716939425141
0.024573947067446	0.56883176780031	3.6307135322228
0.026621775989733	0.50654845668410	3.5919805956868
0.028669604912020	0.83538106810636	3.8987076402739
0.030717433834308	0.68901097416380	4.4230121938958
0.032765262756595	0.53620809664316	4.4245901244966
0.034813091678882	0.86334865140350	4.6325311221126
0.036860920601169	0.80627812938999	5.1952656185367
0.038908749523456	0.58028100126399	5.2623850470118
0.040956578445743	0.87541181741887	5.3761529988798
0.043004407368031	0.91554972103326	5.9472340912229
0.045052236290318	0.64048882352366	6.0991916715833
0.047100065212605	0.87607706054671	6.1330545396619
0.049147894134892	1.0115712453939	6.6817176775022
0.051195723057179	0.71638530463276	6.9296340594797
0.053243551979466	0.87061770385289	6.9058846225200
0.055291380901754	1.0901347771482	7.4035131903084
0.057339209824041	0.80581335874708	7.7490716830104
0.059387038746328	0.86479931227198	7.6957604163892
0.061434867668615	1.1486220772309	8.1186381784831
0.063482696590902	0.90516596451314	8.5538347767197
0.065530525513189	0.86432649994990	8.5020061074412
0.067578354435477	1.1862464930414	8.8336580062598
0.069626183357764	1.0096984488682	9.3415520969586
0.071674012280051	0.87424833770750	9.3222123751432
0.073721841202338	1.2041076828665	9.5550727706924
0.075769670124625	1.1139637197600	10.111426631785
0.077817499046912	0.89843430828011	10.152511732668
0.079865327969200	1.2050654071472	10.288739407207
0.081913156891487	1.2123182931498	10.864395017135
0.083960985813774	0.93917900654629	10.988032315957
0.086008814736061	1.1934687880464	11.039373448545
0.088056643658348	1.2994787475290	11.603119643397
0.090104472580635	0.99697228668826	11.823440619576
0.092152301502923	1.1747450438041	11.810154466629
0.094200130425210	1.3710525587649	12.331808084270
0.096247959347497	1.0704529179467	12.653527886758
0.098295788269784	1.1548857155280	12.602467822373
0.10034361719207	1.4239841611902	13.055873744588
0.10239144611436	1.1565420097350	13.473784330725
0.10443927503665	1.1398752313888	13.415818376180
0.10648710395893	1.4568771732220	13.781476728235
0.10853493288122	1.2507510530255	14.280908025647
0.11058276180351	1.1351293275959	14.247924254764
0.11263059072579	1.4701696975381	14.514971425093
0.11467841964808	1.3476302072660	15.073176277987
0.11672624857037	1.1449683153502	15.094964105686
0.11877407749266	1.4661079392872	15.262330583005
0.12082190641494	1.4412998127593	15.850679050330
0.12286973533723	1.1721970557195	15.951994457740
0.12491756425952	1.4485583880751	16.028606830006
0.12696539318180	1.5260431375927	16.615369397069
0.12901322210409	1.2178322833093	16.813462531600
0.13106105102638	1.4226540298815	16.817466249632
0.13310887994867	1.5968731999540	17.370925460583
0.13515670887095	1.2809902121543	17.673788936302
0.13720453779324	1.3943077721229	17.630864210519
0.13925236671553	1.6500426200003	18.122456863233
0.14130019563781	1.3589761497776	18.527955888316
0.14334802456010	1.3696572811642	18.468867447016
0.14539585348239	1.6834263244203	18.876042832333
0.14744368240468	1.4475225852974	19.372041958550
0.14949151132696	1.3544614703081	19.329680166130
0.15153934024925	1.6967578025448	19.638200954016
0.15358716917154	1.5412118431484	20.203661544382
0.15563499809382	1.3535459832163	20.209830940228
0.15768282701611	1.6916762447660	20.415283363364
0.15973065593840	1.6339908252678	21.022257243900
0.16177848486069	1.3703231827326	21.104545762963
0.16382631378297	1.6716028104677	21.212898710380
0.16587414270526	1.7197743203526	21.829208937465
0.16792197162755	1.4064461987256	22.008227001138
0.16996980054984	1.6414159931580	22.035384777638
0.17201762947212	1.7930298681724	22.627770253225
0.17406545839441	1.4616253177611	22.915051185189
0.17611328731670	1.6070062005673	22.885423998365
0.17816111623898	1.8493480598401	23.422813638160
0.18020894516127	1.5336449399323	23.819568512775
0.18225677408356	1.5747099040202	23.763788463531
0.18430460300585	1.8858815560735	24.220414683397
0.18635243192813	1.6185528301203	24.717293332476
0.18840026085042	1.5507014222402	24.669291822789
0.19044808977271	1.9016568835581	25.027314946617
0.19249591869499	1.7110299339083	25.605195256058
0.19454374761728	1.5403817674120	25.598918511501
0.19659157653957	1.8976922287554	25.850319347331
0.19863940546186	1.8048947508966	26.482069872273
0.20068723438414	1.5478456865442	26.548146838493
0.20273506330643	1.8769364291133	26.695676668445
0.20478289222872	1.8937068834850	27.348728084156
0.20683072115100	1.5754670622914	27.511410485649
0.20887855007329	1.8440085407253	27.568498687863
0.21092637899558	1.9713907051096	28.207990834397
0.21297420791787	1.6236333356027	28.482680934089
0.21502203684015	1.8047700363636	28.472298381578
0.21706986576244	2.0328420999700	29.064501233206
0.21911769468473	1.6906859962247	29.456105223100
0.22116552360701	1.7657764442712	29.408668462261
0.22321335252930	2.0744497470762	29.924346354878
0.22526118145159	1.7730503736701	30.426632164753
0.22730901037388	1.7336460694775	30.377146542499
0.22935683929616	2.0944750281725	30.794537757049
0.23140466821845	1.8655564133136	31.390577016654
0.23345249714074	1.7144121574810	31.375279934783
0.23550032606302	2.0932546303756	31.682398057681
0.23754815498531	1.9619203921043	32.346068543466
0.23959598390760	1.7129295562785	32.398894238554
0.24164381282989	2.0732161730691	32.594902141108
0.24369164175217	2.0553467992741	33.293312768929
0.24573947067446	1.7323699989430	33.442521857520
0.24778729959675	2.0386671787032	33.538050386566
0.24983512851903	2.1391837788575	34.234685245592
0.25188295744132	1.7738904802287	34.499987202149
0.25393078636361	1.9954226786856	34.516322788157
0.25597861528590	2.2075867174476	35.174593426575
0.25802644420818	1.8364794866111	35.565053499802
0.26007427313047	1.9502572923211	35.532273158387
0.26212210205276	2.2561023123972	36.119153975359
0.26416993097504	1.9170141632385	36.632109677075
0.26621775989733	1.9102667649482	36.586313349327
0.26826558881962	2.2821424613897	37.075696584574
0.27031341774191	2.0105282968010	37.696797443983
0.27236124666419	1.8821760598320	37.676697487637
0.27440907558648	2.2852739372825	38.052144820922
0.27645690450877	2.1106635663331	38.756546607866
0.27850473343106	1.8716816848587	38.799725170941
0.28055256235334	2.2673158138641	39.056323835982
0.28260039127563	2.2102673690942	39.810933560370
0.28464822019792	1.8828663988205	39.950134789799
0.28669604912020	2.2322050758508	40.095269620880
0.28874387804249	2.3020729572178	40.861857365700
0.29079170696478	1.9177662448212	41.121673584868
0.29283953588707	2.1856637172819	41.174608986633
0.29488736480935	2.3794168578828	41.913490606888
0.29693519373164	1.9761269408791	42.307773613768
0.29898302265393	2.1346828642973	42.298062624649
0.30103085157621	2.4369095347355	42.972012250690
0.30307868049850	2.0553795706162	43.502277890703
0.30512650942079	2.0868693602441	43.467126147711
0.30717433834308	2.4709984415405	44.045142723675
0.30922216726536	2.1508401128625	44.700146564526
0.31126999618765	2.0497154379542	44.680960855587
0.31331782510994	2.4803555459009	45.141521889090
0.31536565403222	2.2561115255352	45.898085808799
0.31741348295451	2.0298649403535	45.936531316304
0.31946131187680	2.4660761876151	46.269994162556
0.32150914079909	2.3636780244444	47.095016045222
0.32355696972137	2.0324422906081	47.228946569298
0.32560479864366	2.4316302695649	47.438855426404
0.32765262756595	2.4656125530393	48.292353059900
0.32970045648823	2.0605175609165	48.552009666701
0.33174828541052	2.3825941887024	48.655139257866
0.33379611433281	2.5543464675676	49.494048373840
0.33584394325510	2.1147485176285	49.898906019748
0.33789177217738	2.3261587460991	49.924018683654
0.33993960109967	2.6234223522694	50.706401324931
0.34198743002196	2.1932536103839	51.262986992328
0.34403525894424	2.2704778858698	51.248379908922
0.34608308786653	2.6681643148162	51.937639991945
0.34813091678882	2.2917313136487	52.638558296782
0.35017874571111	2.2238991916512	52.628607983770
0.35222657463339	2.6861878096657	53.197310674792
0.35427440355568	2.4038104535098	54.021610463597
0.35632223247797	2.1941552125857	54.062627869949
0.35837006140025	2.6777080945967	54.495534588811
0.36041789032254	2.5216204687895	55.410413822490
0.36246571924483	2.1875939796523	55.546185699467
0.36451354816712	2.6455988552886	55.842190461736
0.36656137708940	2.6365170434372	56.805920853681
0.36860920601169	2.2085175420553	57.073366912448
0.37065703493398	2.5951997830880	57.246113091012
0.37270486385627	2.7399106102956	58.211929123085
0.37475269277855	2.2587018562299	58.637298556988
0.37680052170084	2.5338750646517	58.714374828112
0.37884835062313	2.8241110759456	59.634988717321
0.38089617954541	2.3371472949930	60.230982718838
0.38294400846770	2.4703682559972	60.251732443749
0.38499183738999	2.8831197546680	61.084047007347
0.38703966631228	2.4400918617143	61.848173129103
0.38908749523456	2.4139958284654	61.860285880518
0.39113532415685	2.9132718593678	62.569863417283
0.39318315307914	2.5612839506369	63.484231472893
0.39523098200142	2.3737598084771	63.539411382194
0.39727881092371	2.9136857876850	64.104256242869
0.39932663984600	2.6925254340498	65.136869930936
0.40137446876829	2.3574727552832	65.285954977276
0.40342229769057	2.8864516442644	65.699214407956
0.40547012661286	2.8243948149268	66.806701705773
0.40751795553515	2.3709478003819	67.094716733025
0.40956578445743	2.8365462166114	67.366008913238
0.41161361337972	2.9471462970253	68.497560000243
0.41366144230201	2.4173771106410	68.959144197619
0.41570927122430	2.7714589822688	69.114334742382
0.41775710014658	3.0516461698754	70.216525720590
0.41980492906887	2.4969221967559	70.872222526117
0.42185275799116	2.7005647062733	70.951612144392
0.42390058691344	3.1302974372342	71.973676552084
0.42594841583573	2.6065908192364	72.827460227375
0.42799624475802	2.6342950054960	72.882507607785
0.43004407368031	3.1778575641173	73.781559355154
0.43209190260259	2.7404246921858	74.819883955370
0.43413973152488	2.5831781630386	74.908708557590
0.43618756044717	3.1920457481859	75.654418935877
0.43823538936945	2.8899536471983	76.846957751985
0.44028321829174	2.5568220407330	77.029038359883
0.44233104721403	3.1739121599367	77.607289874816
0.44437887613632	3.0449500411141	78.909332345864
0.44642670505860	2.5629615441982	79.239842950300
0.44847453398089	3.1278726375546	79.654976554933
0.45052236290318	3.1943382331630	81.011362318879
0.45257019182546	2.6066312419813	81.535716143744
0.45461802074775	3.0614560443977	81.811089602120
0.45666584967004	3.3272729987066	83.161323612819
0.45871367859233	2.6895880916301	83.910424588005
0.46076150751461	2.9847268444168	84.087160359457
0.46280933643690	3.4342117370268	85.371297731817
0.46485716535919	2.8100006158587	86.358011132648
0.46690499428147	2.9094345680330	86.491981266446
0.46895282320376	3.5079099753272	87.656752642957
0.47100065212605	2.9624774200010	88.873986304133
0.47304848104834	2.8479817795654	89.031249191958
0.47509630997062	3.5442775702397	90.035833634700
0.47714413889291	3.1384617009706	91.456463676621
0.47919196781520	2.8122799411868	91.707503906440
0.48123979673749	3.5429302049591	92.528408652932
0.48328762565977	3.3269100486120	94.107187036784
0.48533545458206	2.8125951604952	94.520478228099
0.48738328350435	3.5074491908672	95.154999487726
0.48943111242663	3.5152722502022	96.832326015906
0.49147894134892	2.8565067741381	97.467789307886
0.49352677027121	3.4452755800283	97.935671773017
0.49557459919350	3.6906687657086	99.642969071453
0.49762242811578	2.9480744764510	100.54594133623
0.49967025703807	3.3672255061843	100.88899381272
0.50171808596036	3.8411464012551	102.55527616197
0.50376591488264	3.0873047681808	103.75159962001
0.50581374380493	3.2866803678289	104.03118757559
0.50786157272722	3.9569174643250	105.59025059054
0.50990940164951	3.2699551064665	107.08302297983
0.51195723057179	3.2184816263415	107.37560305104
0.51400505949408	4.0314869657107	108.77320004531
0.51605288841637	3.4877824803397	110.54154752681
0.51810071733865	3.1776563236051	110.93252540895
0.52014854626094	4.0625050028005	112.13286186253
0.52219637518323	3.7291314570351	114.13302372037
0.52424420410552	3.1780471215359	114.70947401097
0.52629203302780	4.0523269806546	115.70037137659
0.52833986195009	3.9799506078295	117.86907181385
0.53038769087238	3.2310082049259	118.71190050214
0.53243551979466	4.0081437249084	119.50809193370
0.53448334871695	4.2250484094724	121.76807351085
0.53653117763924	3.3442483336263	122.94437288341
0.53857900656153	3.9416989567681	123.58851739960
0.54062683548381	4.4495643189545	125.85583068741
0.54267466440610	3.5209674595252	127.41215454272
0.54472249332839	3.8685804783702	127.97336120956
0.54677032225067	4.6405301747585	130.16586608825
0.54881815117296	3.7593950210190	132.12309366177
0.55086598009525	3.8071386717652	132.69295272735
0.55291380901754	4.7883555421453	134.73933623860
0.55496163793982	4.0527590384900	137.08975131575
0.55700946686211	3.7771016502860	137.77609911547
0.55905729578440	4.8881232544888	139.62464526568
0.56110512470668	4.3897360343172	142.33165176931
0.56315295362897	3.7980072441909	143.25054589586
0.56520078255126	4.9406013034937	144.87685872068
0.56724861147355	4.7554228417171	147.87754778882
0.56929644039583	3.8876154083333	149.14404708837
0.57134426931812	4.9528327452371	150.55700071978
0.57339209824041	5.1326930095618	153.76758746268
0.57543992716269	4.0603851819608	155.48619054786
0.57748775608498	4.9382641795374	156.73149772871
0.57953558500727	5.5039404380205	160.05537386740
0.58158341392956	4.3262433173639	162.31094922342
0.58363124285184	4.9163844724616	163.47192292551
0.58567907177413	5.8530472646599	166.80986277516
0.58772690069642	4.6897286254954	169.66001200945
0.58977472961871	4.9119040315388	170.85532925886
0.59182255854099	6.1674683013706	174.11718641069
0.59387038746328	5.1496649028583	177.58688999086
0.59591821638557	4.9535406159022	178.96544671805
0.59796604530785	6.4403052045448	182.08255167814
0.60001387423014	5.6994740866543	186.16183646308
0.60206170315243	5.0725692005213	187.89502925120
0.60410953207472	6.6722295631697	190.83240730392
0.60615736099700	6.3281350354663	195.47763185145
0.60820518991929	5.3012141913225	197.74974989210
0.61025301884158	6.8731353809225	200.51736711022
0.61230084776386	7.0218737490837	205.65651614259
0.61434867668615	5.6712201770082	208.65411349774
0.61639650560844	7.0635631186379	211.31638140391
0.61844433453073	7.7666167643230	216.85851018095
0.62049216345301	6.2127732539955	220.75989489664
0.62253999237530	7.2758284373977	223.44296816103
0.62458782129759	8.5511589178653	229.29183448178
0.62663565021987	6.9540959408770	234.25801724992
0.62868347914216	7.5550709423148	237.15472293103
0.63073130806445	9.3711846177822	243.22644439500
0.63277913698674	7.9221001996439	249.39504586338
0.63482696590902	7.9604601315766	252.76776890576
0.63687479483131	10.234228411066	259.01249637307
0.63892262375360	9.1446233153469	266.49635594436
0.64097045267588	8.5672138932535	270.67881236073
0.64301828159817	11.166087830136	277.10653159233
0.64506611052046	10.654952749912	285.99903883663
0.64711393944275	9.4702185653590	291.39884426753
0.64916176836503	12.219317588160	298.11032526757
0.65120959728732	12.499883038326	308.50022349569
0.65325742620961	10.791114360402	315.60542830328
0.65530525513189	13.485690130668	322.83047713478
0.65735308405418	14.753413804419	334.83012011769
0.65940091297647	12.691640504986	344.22531648299
0.66144874189876	15.115835769071	352.37351602795
0.66349657082104	17.540421960871	366.16731673360
0.66554439974333	15.399301899313	378.56880749351
0.66759222866562	17.353126738852	388.30321600055
0.66964005758790	21.078804849309	404.22899264529
0.67168788651019	19.257126592140	420.55702376387
0.67373571543248	20.596945372571	432.91286181226
0.67578354435477	25.759490298155	451.60183552762
0.67783137327705	24.824412893504	473.12559103147
0.67987920219934	25.530417711990	489.72136668393
0.68192703112163	32.310007892449	512.35379943385
0.68397486004391	33.093228569091	540.98777798575
0.68602268896620	33.401466060965	564.43857720655
0.68807051788849	42.162520559724	593.25170996327
0.69011834681078	45.996997270804	632.19422763531
0.69216617573306	46.709026267851	667.00535577021
0.69421400465535	58.385405531547	706.41869977960
0.69626183357764	67.758551868762	761.65720796775
0.69830966249993	71.122801039915	816.39961857870
0.70035749142221	88.437218697155	875.87679780773
0.70240532034450	109.12156483051	960.24710309188
0.70445314926679	121.98091373694	1053.7498649649
0.70650097818907	154.29902637274	1156.5330895919
0.70854880711136	204.38809583933	1303.0127486606
0.71059663603365	253.64615914575	1486.3262914986
0.71264446495594	344.93556420706	1703.7117937112
0.71469229387822	514.62278673995	2022.4122615415
0.71674012280051	778.13310674996	2481.7016908878
0.71878795172280	1324.1004387361	3097.7729054286
0.72083578064508	2694.0346971947	3914.2132643990
0.72288360956737	6031.6608272177	3808.2654297681
0.72493143848966	7978.3312592450	-1547.1127811763
0.72697926741195	4003.4275799819	-4115.1541300580
0.72902709633423	1881.1648952988	-3447.6388250344
0.73107492525652	1035.0127574547	-2668.8271929075
0.73312275417881	621.48539631793	-2140.3202008491
0.73517058310109	423.39087945029	-1788.3790531473
0.73721841202338	316.08961514183	-1509.5982546167
0.73926624094567	228.34383088020	-1301.5580005078
0.74131406986796	176.75718676340	-1157.1118115747
0.74336189879024	151.58112434333	-1029.0687953256
0.74540972771253	119.42611549502	-920.07686850772
0.74745755663482	96.180453296105	-843.68704109315
0.74950538555710	89.389555462211	-772.99735191877
0.75155321447939	75.047512343493	-705.28148911218
0.75360104340168	60.706059838233	-657.68203135848
0.75564887232397	59.129387799693	-614.36533374441
0.75769670124625	52.726449278132	-567.96854367331
0.75974453016854	42.317460987484	-534.64923286237
0.76179235909083	42.023178200713	-506.27682424296
0.76384018801311	39.842123324075	-472.64072777944
0.76588801693540	31.785924529845	-447.21428343508
0.76793584585769	31.378502339275	-427.65193527018
0.76998367477998	31.609491642657	-402.49840523925
0.77203150370226	25.342064404853	-381.84229772204
0.77407933262455	24.331325031043	-367.67168293920
0.77612716154684	25.909947074963	-348.58352406615
0.77817499046912	21.201379755294	-331.08304938903
0.78022281939141	19.486651834622	-320.23471877638
0.78227064831370	21.703560741711	-305.68881970001
0.78431847723599	18.422722452456	-290.49283154405
0.78636630615827	16.092438401771	-281.64959571743
0.78841413508056	18.443923378903	-270.58524638610
0.79046196400285	16.468453707655	-257.24926290851
0.79250979292513	13.705906373328	-249.55692073259
0.79455762184742	15.831389556311	-241.16908439461
