#Parameters = {wakelength=10000; H_cav=30; H_pipe=12; L_cav=20; L_pipe=76; W_cav=30; W_pipe=12; beta=1; cellsperw=20; conductivity=100000000; q=1e-09; sigmaz=5}
#"Frequency / GHz"	"Z (conductivity=1e+08) [Real/Imaginary Part] [Re]"	"Z (conductivity=1e+08) [Real/Imaginary Part] [Im]"
#-------------------------------------------------------------------------------------------------------------------------
0.0000000000000	11.020541863105	-2.4037727029290e-10
0.0020478289222872	-4.5700777262268	10.266183717227
0.0040956578445743	-7.2307618631085	-7.8436221439046
0.0061434867668615	10.571057811960	-2.4192718263757
0.0081913156891487	-1.5332999912114	11.868858394140
0.010239144611436	-9.3023214009590	-4.7404636775673
0.012286973533723	9.2560513355951	-4.5876962534122
0.014334802456010	1.6341109414287	12.579594551844
0.016382631378297	-10.617929063477	-1.1464313602605
0.018430460300585	7.1792494112313	-6.2717186092693
0.020478289222872	4.6779662843695	12.396699260656
0.022526118145159	-11.068725861386	2.7085319089954
0.024573947067446	4.5051842794458	-7.2761388869417
0.026621775989733	7.3525815944041	11.388520445229
0.028669604912020	-10.613964001175	6.5725789851654
0.030717433834308	1.4463183501463	-7.4585398470448
0.032765262756595	9.4398724388230	9.6891980565507
0.034813091678882	-9.2844309381165	10.191571475800
0.036860920601169	-1.7529419761467	-6.7404723262479
0.038908749523456	10.766667197314	7.4887691436041
0.040956578445743	-7.1805943792370	13.328807802002
0.043004407368031	-4.8349423859252	-5.1142379788644
0.045052236290318	11.218569139857	5.0190407931525
0.047100065212605	-4.4655271589584	15.783655002022
0.049147894134892	-7.5485762145443	-2.6441964702696
0.051195723057179	10.749534824703	2.5359295871478
0.053243551979466	-1.3529269116837	17.407664014706
0.055291380901754	-9.6691073182749	0.53733759302959
0.057339209824041	9.3864902976328	0.29988534487050
0.059387038746328	1.9088824420761	18.116937408941
0.061434867668615	-11.016101814668	4.2394626474399
0.063482696590902	7.2283178792746	-1.4445282578422
0.065530525513189	5.0558678707982	17.899808053906
0.067578354435477	-11.468400523205	8.2267163864734
0.069626183357764	4.4393233397958	-2.4880644766266
0.071674012280051	7.8288338307110	16.819079543532
0.073721841202338	-10.974718883693	12.236862742186
0.075769670124625	1.2374882683755	-2.6740460787054
0.077817499046912	9.9940207138280	15.008545527572
0.079865327969200	-9.5592034962734	16.001156613678
0.081913156891487	-2.1216251918134	-1.9117968710238
0.083960985813774	11.362241640960	12.663853212030
0.086008814736061	-7.3211243190960	19.265565333305
0.088056643658348	-5.3644795270357	-0.18544908544403
0.090104472580635	11.804921850788	10.028455768812
0.092152301502923	-4.4287576212088	21.811456192671
0.094200130425210	-8.2209307977734	2.4431429821268
0.096247959347497	11.265977798776	7.3752531607379
0.098295788269784	-1.1075889817632	23.474035192964
0.10034361719207	-10.446016645552	5.8372941453002
0.10239144611436	9.7681868252246	4.9854462893432
0.10443927503665	2.3762811816441	24.157043304282
0.10648710395893	-11.840436321538	9.7945523323738
0.10853493288122	7.4135179988044	3.1260985696683
0.11058276180351	5.7365525342912	23.842564789188
0.11263059072579	-12.267940924224	14.061200349612
0.11467841964808	4.3771932455589	2.0280652882472
0.11672624857037	8.6893219398506	22.594710513644
0.11877407749266	-11.668354499779	18.351464844320
0.12082190641494	0.89557999285708	1.8661335078801
0.12286973533723	10.976438902844	20.557047389940
0.12491756425952	-10.064850071810	22.369800565128
0.12696539318180	-2.7511545144656	2.7429442177042
0.12901322210409	12.387364815256	17.943341977915
0.13106105102638	-7.5647319987903	25.834902408427
0.13310887994867	-6.2606687446279	4.6782450835667
0.13515670887095	12.778120476072	15.022326911621
0.13720453779324	-4.3533959012084	28.503410218970
0.13925236671553	-9.3326606000146	7.6044385251100
0.14130019563781	12.085509148866	12.097401624851
0.14334802456010	-0.68177321850652	30.191351538718
0.14539585348239	-11.693808236274	11.369221810344
0.14744368240468	10.335195335193	9.4827100352192
0.14949151132696	3.1522830971286	30.791607529646
0.15153934024925	-13.121509125594	15.745148660438
0.15358716917154	7.6427548186232	7.4773620040533
0.15563499809382	6.8270671755927	30.285726434047
0.15768282701611	-13.464335804494	20.445975052639
0.15973065593840	4.2074097833690	6.3398837987923
0.16177848486069	10.023150966163	28.748770663841
0.16382631378297	-12.657496321412	25.148458616603
0.16587414270526	0.29846978923286	6.2649457265590
0.16792197162755	12.450324262074	26.346701612840
0.16996980054984	-10.731595827152	29.518142044556
0.17201762947212	-3.7646917974446	7.3644898278510
0.17406545839441	13.873260427845	23.325923888049
0.17611328731670	-7.8138638065874	33.237307649423
0.17816111623898	-7.6376201918538	9.6549472399845
0.18020894516127	14.133634840338	19.995640337274
0.18225677408356	-4.1212673136607	36.032617855915
0.18430460300585	-10.979139054678	13.052090553532
0.18635243192813	13.166838500638	16.704180655657
0.18840026085042	0.054338864552821	37.700314159371
0.19044808977271	-13.480515140641	17.373982047207
0.19249591869499	11.011353244486	13.810898239002
0.19454374761728	4.3680384158832	38.126521994461
0.19659157653957	-14.893289311453	22.352493115404
0.19863940546186	7.8097490349272	11.655799201927
0.20068723438414	8.4491177702034	37.300962408991
0.20273506330643	-15.053225208140	27.652822912431
0.20478289222872	3.8010519931779	10.529576815957
0.20683072115100	11.931993795316	35.322290462920
0.20887855007329	-13.898085913032	32.899289966089
0.21092637899558	-0.69586571985096	10.646376066085
0.21297420791787	14.487885397993	32.394405099008
0.21502203684015	-11.477512664253	37.706302033046
0.21706986576244	-5.3062641167032	12.121952508498
0.21911769468473	15.855154985319	28.813500124791
0.22116552360701	-7.9537414810263	41.711199717682
0.22321335252930	-9.6295792078548	14.959192556826
0.22526118145159	15.864807737641	24.946474657161
0.22730901037388	-3.5925096451734	44.607078492242
0.22935683929616	-13.273169707336	19.042852738679
0.23140466821845	14.459655757466	21.202219405993
0.23345249714074	1.2553542213412	46.172038623466
0.23550032606302	-15.886995441492	24.144215501406
0.23754815498531	11.704363510698	17.997897237708
0.23959598390760	6.1807570801836	46.292628999298
0.24164381282989	-17.196198498960	29.935915332437
0.24369164175217	7.7854406730617	15.722698740301
0.24573947067446	10.749458706619	44.978937747121
0.24778729959675	-17.028837828127	36.016156986286
0.24983512851903	3.0006669723139	14.702454349734
0.25188295744132	14.539132384698	42.369539254001
0.25393078636361	-15.335888464497	41.940569953998
0.25597861528590	-2.2619341512145	15.167919276761
0.25802644420818	17.177147995716	38.725531676591
0.26007427313047	-12.201408964716	47.259463219134
0.26212210205276	-7.5540348567783	17.229891922495
0.26416993097504	18.375956946717	34.413368197789
0.26621775989733	-7.8415983691359	51.557433395391
0.26826558881962	-12.403723976495	20.863620023833
0.27031341774191	17.962667950351	29.877574230827
0.27236124666419	-2.5920512355008	54.491918119526
0.27440907558648	-16.356299045158	25.904438860139
0.27645690450877	15.900082341629	25.605169623202
0.27850473343106	3.1161243085953	55.827336948238
0.28055256235334	-19.015497389922	32.055549953594
0.28260039127563	12.296707499006	22.084549701110
0.28464822019792	8.7900401412882	55.461425429356
0.28669604912020	-20.081778760840	38.907928726024
0.28874387804249	7.4044108798225	19.762036378806
0.29079170696478	13.915860733984	53.441143007330
0.29283953588707	-19.383908020034	45.971268280318
0.29488736480935	1.6031546249811	18.999875581121
0.29693519373164	18.003623070295	49.966102811896
0.29898302265393	-16.900890438914	52.713790083062
0.30103085157621	-4.6265621723940	20.039722464869
0.30307868049850	20.632461199169	45.378734151424
0.30512650942079	-12.771445375301	58.607874129632
0.30717433834308	-10.741410878401	22.974726132683
0.30922216726536	21.491845828761	40.140786658561
0.31126999618765	-7.2899468032844	63.177705020985
0.31331782510994	-16.180952578557	27.733570563833
0.31536565403222	20.415311250705	34.798303139770
0.31741348295451	-0.88804713190216	66.044830420807
0.31946131187680	-20.417164592139	34.078365679381
0.32150914079909	17.403026003311	29.936939074547
0.32355696972137	5.8969102385886	66.967605735314
0.32560479864366	-23.003638414925	41.617280053500
0.32765262756595	12.630588061026	26.131428877098
0.32970045648823	12.464811366546	65.870279274995
0.33174828541052	-23.620306511035	49.831856052367
0.33379611433281	6.4426752293680	23.893065152793
0.33584394325510	18.203481479759	62.858924871623
0.33789177217738	-22.109197481387	58.117069170321
0.33993960109967	-0.66903818755394	23.620290373246
0.34198743002196	22.543517135552	58.221802521938
0.34403525894424	-18.497594293604	65.831522305676
0.34608308786653	-8.1023523469463	25.556463231694
0.34813091678882	25.012172200993	52.413497910870
0.35017874571111	-13.005711852523	72.353658084736
0.35222657463339	-15.192930494718	29.759372523426
0.35427440355568	25.281565584674	46.022893165909
0.35632223247797	-6.0375111904272	77.139374633331
0.35837006140025	-21.271231771683	36.085793196718
0.36041789032254	23.206587537488	39.727413805383
0.36246571924483	1.8456852988550	79.775997365651
0.36451354816712	-25.723050836962	44.193252834805
0.36656137708940	18.848471297774	34.236681201976
0.36860920601169	9.9672752660127	80.027370938898
0.37065703493398	-28.048429981228	53.560011304452
0.37270486385627	12.480954548696	30.229839791478
0.37475269277855	17.590401996081	77.865641094528
0.37680052170084	-27.913902826886	63.522368865913
0.37884835062313	4.5777070432470	28.292139301739
0.38089617954541	23.981485955167	73.486054923852
0.38294400846770	-25.192505628200	73.327085208386
0.38499183738999	-4.2192221103083	28.856291259824
0.38703966631228	28.477397842051	67.302440203880
0.38908749523456	-19.987545170547	82.194970554326
0.39113532415685	-13.147997581034	32.154132053289
0.39318315307914	30.550097383113	59.922615905995
0.39523098200142	-12.636846434985	89.390651585001
0.39727881092371	-21.389428982255	38.183676778244
0.39932663984600	29.863000325983	52.104676987241
0.40137446876829	-3.6960924145131	94.292668458033
0.40342229769057	-28.138267262516	46.695339073020
0.40547012661286	26.313337970305	44.697097527395
0.40751795553515	6.0987404900945	96.457333777926
0.40956578445743	-32.677821906835	57.199887774750
0.41161361337972	20.055980345894	38.566937284628
0.41366144230201	15.887551127361	95.670635315894
0.41570927122430	-34.450875080284	68.998470329063
0.41775710014658	11.505154379128	34.521929063648
0.41980492906887	24.757075396515	91.982407930925
0.42185275799116	-33.120758902920	81.233846789833
0.42390058691344	1.3130587730609	33.233021757082
0.42594841583573	31.821080511275	85.718711312671
0.42799624475802	-28.616220238000	92.958983227317
0.43004407368031	-9.6748094116217	35.164628482608
0.43209190260259	36.303319267131	77.470020976184
0.43413973152488	-21.154951515566	103.21841560035
0.43618756044717	-20.484547642466	40.518869129056
0.43823538936945	37.615727997910	68.054640928756
0.44028321829174	-11.242644594415	111.13552770782
0.44233104721403	-30.094669524774	49.200397974955
0.44437887613632	35.424807603487	58.459096200912
0.44642670505860	0.35437431224285	115.99845481307
0.44847453398089	-37.526539388265	60.805584227734
0.45052236290318	29.699037676543	49.759355390911
0.45257019182546	12.661881135861	117.33683888183
0.45461802074775	-41.937023881860	74.639199752476
0.45666584967004	20.732391638092	43.028753946235
0.45871367859233	24.572846435511	114.98177158895
0.46076150751461	-42.704954302572	89.758602407968
0.46280933643690	9.1397086051072	39.239801401339
0.46485716535919	34.939649114927	109.10267745047
0.46690499428147	-39.503483078031	105.04338042356
0.46895282320376	-4.1772243689000	39.168622330469
0.47100065212605	42.676421085391	100.21598226835
0.47304848104834	-32.350898617247	119.28600069699
0.47509630997062	-18.091939490455	43.310513842268
0.47714413889291	46.862908712438	89.163207318367
0.47919196781520	-21.633631389229	131.29682190674
0.48123979673749	-31.340137667921	51.814838288469
0.48328762565977	46.840729660978	77.058092756517
0.48533545458206	-8.0977839310174	140.01480130878
0.48738328350435	-42.625455093883	64.446723539620
0.48943111242663	42.292875519719	65.205535457107
0.49147894134892	7.1925024951343	144.61498853978
0.49352677027121	-50.735488899122	80.580632499446
0.49557459919350	33.298422076335	54.997259853196
0.49762242811578	22.928280016145	144.60237317347
0.49967025703807	-54.659151698059	99.228667228197
0.50171808596036	20.355436914303	47.792205377018
0.50376591488264	37.656513249048	139.88351042949
0.50581374380493	-53.694400426723	119.10369412421
0.50786157272722	4.3681105968587	44.790871644684
0.50990940164951	49.901453261923	130.80735659532
0.51195723057179	-47.536725129266	138.71417835845
0.51400505949408	-13.403443836009	46.914394348178
0.51605288841637	58.297240209649	118.16981735549
0.51810071733865	-36.338753165515	156.48479863205
0.52014854626094	-31.429206496425	54.699257648498
0.52219637518323	61.721138799999	103.17895376732
0.52424420410552	-20.733770057857	170.89405619109
0.52629203302780	-48.026058420792	68.218161829013
0.52833986195009	59.415606404495	87.380690176580
0.53038769087238	-1.8184559333365	180.61838405645
0.53243551979466	-61.497705721396	87.035921587033
0.53448334871695	51.087945644597	72.549080872725
0.53653117763924	18.907048906131	184.67042650519
0.53857900656153	-70.286948612641	110.20701338012
0.54062683548381	36.976975461539	60.546989110918
0.54267466440610	39.639393370579	182.51949034165
0.54472249332839	-73.128511157793	136.31787114336
0.54677032225067	17.878312444778	53.168200626095
0.54881815117296	58.407646629973	174.18190402105
0.55086598009525	-69.189265781145	163.57451555161
0.55291380901754	-4.8767274848858	51.972006512422
0.55496163793982	73.234915966372	160.27194397391
0.55700946686211	-58.182406525149	189.93087739709
0.55905729578440	-29.490962661371	58.124481917554
0.56110512470668	82.314636459617	142.00505626769
0.56315295362897	-40.444589287910	213.25098671892
0.56520078255126	-53.817564412872	72.260233517316
0.56724861147355	84.187908185650	121.15029795021
0.56929644039583	-16.965879842334	231.49322140970
0.57134426931812	-75.516825174639	94.377901951339
0.57339209824041	77.906303906264	99.931222140103
0.57543992716269	10.633454256167	242.90440184314
0.57748775608498	-92.243567346226	123.78131831835
0.57953558500727	63.167107315751	80.879734760847
0.58158341392956	40.181444584973	246.20723632184
0.58363124285184	-101.85213114423	159.07425965602
0.58567907177413	40.405562113498	66.651349301106
0.58772690069642	69.086954984660	240.76649870512
0.58977472961871	-102.60419852777	198.21445022624
0.59182255854099	10.835199385736	59.813771295251
0.59387038746328	94.518996750191	226.71842560395
0.59591821638557	-93.362240029349	238.62704116104
0.59796604530785	-23.572373503231	62.623757654252
0.60001387423014	113.62290479791	205.05079438956
0.60206170315243	-73.752738767009	277.37341376148
0.60410953207472	-60.170862932427	76.809576123324
0.60615736099700	123.75906283562	177.62371129533
0.60820518991929	-44.283973331368	311.36718402185
0.61025301884158	-95.784119575670	103.37614581247
0.61230084776386	122.74726663171	147.12609389587
0.61434867668615	-6.4061989480994	337.62445538488
0.61639650560844	-126.90572393566	142.45084822416
0.61844433453073	109.09904554112	116.96668193046
0.62049216345301	37.494412442032	353.53309392745
0.62253999237530	-149.94248896601	193.18390188087
0.62458782129759	82.219903997832	91.105434880345
0.62663565021987	84.171076386562	357.12307344402
0.62868347914216	-161.48587820588	253.71613466342
0.63073130806445	42.564989414364	73.834875444789
0.63277913698674	129.65984918746	347.32073813011
0.63482696590902	-158.59410345553	321.22000330309
0.63687479483131	-8.2645925852968	69.528032076115
0.63892262375360	169.48199475769	324.17053800218
0.64097045267588	-139.06412208299	392.01767538983
0.64301828159817	-67.492604398633	82.373179436883
0.64506611052046	198.89282898248	289.01185295893
0.64711393944275	-101.67501487333	461.77103967925
0.64916176836503	-131.20785014161	116.12104268859
0.65120959728732	213.15644231610	244.60612059814
0.65325742620961	-46.384045231810	525.73563297107
0.65530525513189	-194.46677978185	173.87360211399
0.65735308405418	207.82136081771	195.21931974851
0.65940091297647	25.537087050036	579.06431058878
0.66144874189876	-251.43971403070	257.95080845960
0.66349657082104	178.96542912999	146.68039596391
0.66554439974333	111.43340133877	617.14220575950
0.66759222866562	-295.57043379721	369.87904888341
0.66964005758790	123.36957915156	106.46632440859
0.67168788651019	207.26086991534	635.93442424218
0.67373571543248	-319.68930642932	510.56698612738
0.67578354435477	38.564960544293	83.911811235939
0.67783137327705	307.62318628165	632.32540579197
0.67987920219934	-315.98034765172	680.78024654667
0.68192703112163	-77.336921536035	90.749660147269
0.68397486004391	405.79983502264	604.43789258604
0.68602268896620	-275.59750511588	882.13997947654
0.68807051788849	-226.20810091558	142.43143720504
0.69011834681078	493.64418759895	551.93110729473
0.69216617573306	-187.47500749967	1119.1824931624
0.69421400465535	-411.27428342300	261.33251392436
0.69626183357764	561.05453206787	476.32072594071
0.69830966249993	-35.128284729142	1403.9268904337
0.70035749142221	-640.45391213885	484.95027847326
0.70240532034450	594.14411655106	381.48668425969
0.70445314926679	212.33794128281	1767.6066301400
0.70650097818907	-935.61370082212	889.67481677226
0.70854880711136	568.95494387837	275.02874406994
0.71059663603365	630.21556821000	2298.3453552616
0.71264446495594	-1365.3793642194	1677.3074632813
0.71469229387822	424.85668045410	173.83984172919
0.71674012280051	1478.4975800355	3315.2295942043
0.71878795172280	-2226.9231568316	3660.3256651422
0.72083578064508	-128.31118276918	145.17099342292
0.72288360956737	4661.2264272965	7168.1969547521
0.72493143848966	-7739.0994189061	18263.432966389
0.72697926741195	41808.849085113	-6826.5153779804
0.72902709633423	-9020.0652557192	-10029.496414890
0.73107492525652	2374.5619016425	-8953.1942190187
0.73312275417881	1976.0392855293	-608.22784827437
0.73517058310109	-2385.6189413102	-1874.3837279949
0.73721841202338	413.92787596001	-3885.2145287883
0.73926624094567	1375.5914903967	-632.32892429889
0.74131406986796	-1237.8472936309	-646.63695198793
0.74336189879024	-124.91723522053	-2467.6770411877
0.74540972771253	1094.2595633723	-709.54783041407
0.74745755663482	-686.29523399429	-187.36392279617
0.74950538555710	-372.34486212754	-1730.2773146580
0.75155321447939	879.92299760810	-781.01949079443
0.75360104340168	-331.80178793967	12.801874118512
0.75564887232397	-493.91339416126	-1240.1230394235
0.75769670124625	686.13720156322	-831.61201121131
0.75974453016854	-77.568963808898	86.197794506380
0.76179235909083	-539.74486163763	-873.60739770528
0.76384018801311	502.14411791316	-855.02891221943
0.76588801693540	109.39668687481	85.675614025244
0.76793584585769	-532.11205081945	-585.02150457935
0.76998367477998	327.67089223901	-848.81812912826
0.77203150370226	242.67487547656	39.285640430039
0.77407933262455	-484.55961103225	-355.27353389686
0.77612716154684	166.22231667585	-813.12915480674
0.77817499046912	329.12223708339	-34.587094609168
0.78022281939141	-407.62137235262	-175.74474826517
0.78227064831370	22.526578947402	-750.21845856334
0.78431847723599	373.48549498374	-122.09023769102
0.78636630615827	-310.75466152595	-41.971185473515
