#Parameters = {wakelength=10000; H_cav=30; H_pipe=12; L_cav=20; L_pipe=76; W_cav=30; W_pipe=12; beta=1; cellsperw=20; conductivity=10000; q=1e-09; sigmaz=5}
#"Frequency / GHz"	"Z (conductivity=10000) [Real/Imaginary Part] [Re]"	"Z (conductivity=10000) [Real/Imaginary Part] [Im]"
#-------------------------------------------------------------------------------------------------------------------------
0.0000000000000	7.4502584114846	7.3035762281888e-11
0.0020478289222872	-3.0178422058723	7.1061303952915
0.0040956578445743	-4.9252196914425	-4.9623269536499
0.0061434867668615	7.1784184369002	-1.4494351214665
0.0081913156891487	-0.68399447016975	8.4952240455985
0.010239144611436	-6.3077495301088	-2.4169505133031
0.012286973533723	6.1953452448972	-2.7839948550348
0.014334802456010	1.6763858134945	9.1144443512104
0.016382631378297	-7.1146173616582	0.47143824822190
0.018430460300585	4.5964183226408	-3.7030070937653
0.020478289222872	3.8723681875169	9.0313885089645
0.022526118145159	-7.2317455545166	3.5191099423345
0.024573947067446	2.5610554416141	-4.0405286285754
0.026621775989733	5.7101207150134	8.3240537920912
0.028669604912020	-6.6354340146178	6.5019774694257
0.030717433834308	0.29226414007282	-3.6947663557779
0.032765262756595	7.0178533480159	7.1283587446966
0.034813091678882	-5.3778428716237	9.2022589838495
0.036860920601169	-1.9889814347688	-2.6281107498627
0.038908749523456	7.6713107770342	5.6284748905381
0.040956578445743	-3.5764377625652	11.429938364595
0.043004407368031	-4.0612601811679	-0.87106158563463
0.045052236290318	7.6079294656324	4.0388056533657
0.047100065212605	-1.4015624659639	13.040454843233
0.049147894134892	-5.7229627071037	1.4801020890018
0.051195723057179	6.8335336598705	2.5832646495879
0.053243551979466	0.94011414815527	13.948288739114
0.055291380901754	-6.8113406595565	4.2720808164239
0.057339209824041	5.4220676031100	1.4736776049491
0.059387038746328	3.2252618632109	14.135168126880
0.061434867668615	-7.2181752643037	7.3089476792875
0.063482696590902	3.5087644484578	0.88952916557597
0.065530525513189	5.2351834799536	13.652007789830
0.067578354435477	-6.9002416108274	10.370719596636
0.069626183357764	1.2774370621331	0.96064678617932
0.071674012280051	6.7766776543819	12.614289392204
0.073721841202338	-5.8837382213083	13.234294833503
0.075769670124625	-1.0569353679393	1.7547066264444
0.077817499046912	7.7006340928418	11.191347275443
0.079865327969200	-4.2620420578225	15.694800977300
0.081913156891487	-3.2685734967223	3.2704921330531
0.083960985813774	7.9164263148451	9.5904229254957
0.086008814736061	-2.1871212612938	17.585281813286
0.088056643658348	-5.1424804630175	5.4377703029087
0.090104472580635	7.4008726241190	8.0371402646652
0.092152301502923	0.14473722277899	18.792902134017
0.094200130425210	-6.4949796256953	8.1236846493742
0.096247959347497	6.2008033079287	6.7540278391551
0.098295788269784	2.5114556459742	19.270033175306
0.10034361719207	-7.1914668429538	11.145136050682
0.10239144611436	4.4289669869380	5.9392619596214
0.10443927503665	4.6862108537698	19.039208553778
0.10648710395893	-7.1595879172905	14.286065868175
0.10853493288122	2.2536441818458	5.7476680359475
0.11058276180351	6.4591545440890	18.191468706041
0.11263059072579	-6.3964866702423	17.317919363922
0.11467841964808	-0.11707450301404	6.2756261287233
0.11672624857037	7.6575596759177	16.878102599085
0.11877407749266	-4.9695610792798	20.021474060572
0.12082190641494	-2.4549102235320	7.5515046844211
0.12286973533723	8.1626094436520	15.296636332738
0.12491756425952	-3.0104951350339	22.207884981986
0.12696539318180	-4.5331047926165	9.5324877419542
0.12901322210409	7.9211555402520	13.672309843602
0.13106105102638	-0.70316873751477	23.737026506461
0.13310887994867	-6.1480930653524	12.108200107926
0.13515670887095	6.9513283971482	12.236777892649
0.13720453779324	1.7335823718641	24.531297012719
0.13925236671553	-7.1391951510986	15.110694017269
0.14130019563781	5.3413524674420	11.206033571968
0.14334802456010	4.0665528021080	24.583611687976
0.14539585348239	-7.4043232404097	18.330151391844
0.14744368240468	3.2417336486677	10.759642556200
0.14949151132696	6.0704242985961	23.958736721500
0.15153934024925	-6.9102630305201	21.534569983907
0.15358716917154	0.85142778151572	11.023248755816
0.15563499809382	7.5493656344702	22.787728919385
0.15768282701611	-5.6965277783427	24.491800818101
0.15973065593840	-1.6008100989738	12.056104124598
0.16177848486069	8.3560667428361	21.256138589521
0.16382631378297	-3.8722238555726	26.991849618264
0.16587414270526	-3.8779549218364	13.844754687300
0.16792197162755	8.4063386229993	19.586762547302
0.16996980054984	-1.6063525325012	28.867198706296
0.17201762947212	-5.7573522315905	16.303645840182
0.17406545839441	7.6878227078749	18.018751753660
0.17611328731670	0.88776703160296	30.009350580724
0.17816111623898	-7.0522069710968	19.282553115055
0.18020894516127	6.2619459353484	16.784952418786
0.18225677408356	3.3724318985647	30.379923148958
0.18430460300585	-7.6298227517438	22.580313260683
0.18635243192813	4.2589062017833	16.089541791737
0.18840026085042	5.6080423142495	30.015098931794
0.19044808977271	-7.4250080713734	25.963525855315
0.19249591869499	1.8659530350014	16.088198103104
0.19454374761728	7.3760189841730	29.023194537680
0.19659157653957	-6.4470495828292	29.188575604550
0.19863940546186	-0.68980306097928	16.872639430291
0.20068723438414	8.5000252125612	27.575122636428
0.20273506330643	-4.7798049973477	32.024880746867
0.20478289222872	-3.1626686773683	18.461057506199
0.20683072115100	8.8633816611443	25.888904830914
0.20887855007329	-2.5746319858432	34.277200024214
0.21092637899558	-5.3116501301966	20.795492120132
0.21297420791787	8.4210611763277	24.209448390819
0.21502203684015	-0.036751187845399	35.804842814032
0.21706986576244	-6.9236303853396	23.746339974930
0.21911769468473	7.2049375283369	22.785496451040
0.22116552360701	2.5936340332025	36.535995068294
0.22321335252930	-7.8341464008307	27.123879546778
0.22526118145159	5.3218822446147	21.845872413020
0.22730901037388	5.0638571708716	36.475587570331
0.22935683929616	-7.9438998557233	30.695606450846
0.23140466821845	2.9445704565370	21.577347116856
0.23345249714074	7.1328575077605	35.706073652214
0.23550032606302	-7.2292119088937	34.207920059103
0.23754815498531	0.29597472086017	22.106124558932
0.23959598390760	8.5944214939069	34.380702962806
0.24164381282989	-5.7454902337478	37.410179451740
0.24369164175217	-2.3712611851347	23.484860806785
0.24573947067446	9.2975229871573	32.710067129048
0.24778729959675	-3.6231516953037	40.078814889881
0.24983512851903	-4.7985501594086	25.686490827042
0.25188295744132	9.1617000223239	30.942861437386
0.25393078636361	-1.0563943686695	42.039299341271
0.25597861528590	-6.7460222139204	28.605562400785
0.25802644420818	8.1859618137851	29.342762033888
0.26007427313047	1.7143802807388	43.183730256694
0.26212210205276	-8.0158855934323	32.067042765942
0.26416993097504	6.4502398586728	28.163459093208
0.26621775989733	4.4247793480527	43.482440234699
0.26826558881962	-8.4721317812355	35.841951506520
0.27031341774191	4.1091836250220	27.624252946843
0.27236124666419	6.8113523787205	42.988315413144
0.27440907558648	-8.0546660883255	39.668412450415
0.27645690450877	1.3787076973378	27.888418734186
0.27850473343106	8.6368580896837	41.833322528252
0.28055256235334	-6.7865129686378	43.276216699712
0.28260039127563	-1.4835510119849	29.046583038900
0.28464822019792	9.7135312256139	40.217424491305
0.28669604912020	-4.7732378910984	46.412631120180
0.28874387804249	-4.2021518852494	31.106712768142
0.29079170696478	9.9220476624203	38.390863080438
0.29283953588707	-2.1944095038616	48.867092470289
0.29488736480935	-6.5098679708254	33.991754242534
0.29693519373164	9.2243605074334	36.631205796375
0.29898302265393	0.71206820991245	50.492325771477
0.30103085157621	-8.1735199261934	37.545367491027
0.30307868049850	7.6690404822308	35.217443828561
0.30512650942079	3.6715935458640	51.219878600999
0.30717433834308	-9.0170239923460	41.545325254349
0.30922216726536	5.3884665457732	34.403274373374
0.31126999618765	6.3983547835456	51.068480237805
0.31331782510994	-8.9395742693317	45.723476617909
0.31536565403222	2.5879394596893	34.392400799902
0.31741348295451	8.6225207692094	50.144316629870
0.31946131187680	-7.9269173217803	49.790587425965
0.32150914079909	-0.47229608150188	35.317908873966
0.32355696972137	10.116504973522	48.632882412630
0.32560479864366	-6.0547704053865	53.463623779598
0.32765262756595	-3.5007838239025	37.228002573929
0.32970045648823	10.717739148538	46.783172234518
0.33174828541052	-3.4836656097626	56.493203591920
0.33379611433281	-6.2020649011018	40.079469816502
0.33584394325510	10.345844929725	44.885478459832
0.33789177217738	-0.44558846954187	58.688437851465
0.33993960109967	-8.3048821844861	43.739702003605
0.34198743002196	9.0123659276213	43.244657186890
0.34403525894424	2.7764613575307	59.936798263284
0.34608308786653	-9.5888221564432	47.997314604595
0.34813091678882	6.8219854431152	42.151411564453
0.35017874571111	5.8743231702247	60.217071067569
0.35222657463339	-9.9067341437818	52.580503766187
0.35427440355568	3.9649325032487	41.854181334194
0.35632223247797	8.5435551028947	59.603875224634
0.35837006140025	-9.2008125707418	57.181637330416
0.36041789032254	0.70097882406856	42.534355660728
0.36246571924483	10.512708036556	58.263288646531
0.36451354816712	-7.5105357691975	61.485968954462
0.36656137708940	-2.6635124494842	44.287193734552
0.36860920601169	11.570266348897	56.439599124266
0.37065703493398	-4.9715943321112	65.201742093934
0.37270486385627	-5.8036634661674	47.110462075697
0.37475269277855	11.586646028429	54.434273445920
0.37680052170084	-1.8056298277922	68.088988706881
0.37884835062313	-8.4066593659610	50.901961180700
0.38089617954541	10.528948334603	52.578898093048
0.38294400846770	1.6984457798831	69.984215031026
0.38499183738999	-10.202126175953	55.466621556506
0.38703966631228	8.4670400429275	51.204532396871
0.38908749523456	5.2101384229423	70.818603549201
0.39113532415685	-10.989266410736	60.532524546276
0.39318315307914	5.5699876175558	50.610168259355
0.39523098200142	8.3877544165420	70.627721530594
0.39727881092371	-10.658290391683	65.774765694621
0.39932663984600	2.0929969042818	51.033303598980
0.40137446876829	10.910728733856	69.551639854827
0.40342229769057	-9.2038480904479	70.845144609085
0.40547012661286	-1.6442393619240	52.625469767594
0.40751795553515	12.511043532395	67.825192133998
0.40956578445743	-6.7289520876235	75.404942533470
0.41161361337972	-5.2860258854321	55.435123127734
0.41366144230201	13.000618312010	65.758925694309
0.41570927122430	-3.4387710436988	79.157950344642
0.41775710014658	-8.4734640811074	59.399777650515
0.41980492906887	12.292038765293	63.712251215255
0.42185275799116	0.37545267387913	81.880585153568
0.42390058691344	-10.878681582184	64.348431634416
0.42594841583573	10.410513452380	62.061118294536
0.42799624475802	4.3612182815296	83.446134255523
0.43004407368031	-12.237260255047	70.014328247741
0.43209190260259	7.4954857691771	61.162939873105
0.43413973152488	8.1362221393524	83.840746288345
0.43618756044717	-12.375922044926	76.057268379885
0.43823538936945	3.7915488921469	61.322180550100
0.44028321829174	11.323760251190	83.169374302945
0.44233104721403	-11.232440383120	82.093786372987
0.44437887613632	-0.37088088427068	62.759583618196
0.44642670505860	13.588976800007	81.650711509221
0.44847453398089	-8.8659303465573	87.732417783245
0.45052236290318	-4.6037418478001	65.588267390698
0.45257019182546	14.672448244522	79.601189223841
0.45461802074775	-5.4560398078753	92.611193820886
0.45666584967004	-8.4961143693712	69.799030548850
0.45871367859233	14.417945538275	77.409299917566
0.46076150751461	-1.2907554550168	96.433959921062
0.46280933643690	-11.652339250739	75.256749456407
0.46485716535919	12.791751524810	75.502037226631
0.46690499428147	3.2565371762077	99.001753458584
0.46895282320376	-13.730463396663	81.708362960986
0.47100065212605	9.8910063190903	74.306435071278
0.47304848104834	7.7588659631761	100.23664639554
0.47509630997062	-14.477092720102	88.802483234274
0.47714413889291	5.9402923704621	74.209582803308
0.47919196781520	11.773973924443	100.19512007279
0.48123979673749	-13.755452477768	96.119051148275
0.48328762565977	1.2760284954665	75.520605848159
0.48533545458206	14.885600492347	99.069577792125
0.48738328350435	-11.563775204439	103.20682863171
0.48943111242663	-3.6802497789672	78.438507187494
0.49147894134892	16.744333161504	97.177188462941
0.49352677027121	-8.0418833911049	109.62548613526
0.49557459919350	-8.4578490911185	83.028779672631
0.49762242811578	17.103884604052	94.936729142788
0.49967025703807	-3.4648311737677	114.98884848017
0.50171808596036	-12.579068172300	89.211576516641
0.50376591488264	15.849633965580	92.834947471114
0.50581374380493	1.7763965942476	119.00511702205
0.50786157272722	-15.604011554224	96.762844650964
0.50990940164951	13.016159417404	91.384987964974
0.51195723057179	7.2057689493219	121.51044895810
0.51400505949408	-17.174158474097	105.32918209541
0.51605288841637	8.7919417219434	91.080576754486
0.51810071733865	12.302676100234	122.49241452406
0.52014854626094	-17.050528727689	114.45539734127
0.52219637518323	3.5098838451594	92.349696644246
0.52424420410552	16.548480956331	122.10092393074
0.52629203302780	-15.142800841184	123.62318222781
0.52833986195009	-2.3758117533116	95.512199985850
0.53038769087238	19.475464253826	120.64478812873
0.53243551979466	-11.526274005155	132.29771914466
0.53448334871695	-8.3253377962073	100.74512353433
0.53653117763924	20.713574962816	118.57387747498
0.53857900656153	-6.4445532158203	139.97871371828
0.54062683548381	-13.758539856879	108.05956154662
0.54267466440610	20.031002703328	116.44738268076
0.54472249332839	-0.29704185368770	146.25118999574
0.54677032225067	-18.106720578405	117.29154400470
0.54881815117296	17.364387828273	114.89085476605
0.55086598009525	6.3885265026572	150.83190360297
0.55291380901754	-20.866114418385	128.10861430306
0.55496163793982	12.835547494196	114.54482744419
0.55700946686211	12.996732957790	153.60681205982
0.55905729578440	-21.648848549251	140.03239879695
0.56110512470668	6.7525022706708	116.00950955265
0.56315295362897	18.875474210372	154.65606095431
0.56520078255126	-20.226525897779	152.47616456798
0.56724861147355	-0.40606683582241	119.79016061204
0.56929644039583	23.393569137935	154.26366409678
0.57134426931812	-16.562286150721	164.79471281360
0.57339209824041	-8.0225674547564	126.24793595048
0.57543992716269	25.999870093742	152.91022847661
0.57748775608498	-10.828032519720	176.34358305890
0.57953558500727	-15.386504448782	135.56115484139
0.58158341392956	26.279512768196	151.24875133252
0.58363124285184	-3.4043504766059	186.54263572439
0.58567907177413	-21.751634022830	147.70069149286
0.58772690069642	24.001867441198	150.06463397851
0.58977472961871	5.1376252535238	194.93933207209
0.59182255854099	-26.400022077104	162.42279574535
0.59387038746328	19.155845156803	150.22278415478
0.59591821638557	14.072078337225	201.26659951927
0.59796604530785	-28.708067658956	179.28109265783
0.60001387423014	11.969055220285	152.60568600321
0.60206170315243	22.569849257226	205.49063817943
0.60410953207472	-28.208952879811	197.65816135649
0.60615736099700	2.9084462593069	158.04761762253
0.60820518991929	29.762115848899	207.84427140460
0.61025301884158	-24.646547934341	216.81551177931
0.61230084776386	-7.3390021025106	167.27051426940
0.61434867668615	34.811639994089	208.84384051444
0.61639650560844	-18.015777558960	235.95996598640
0.61844433453073	-17.903948387626	180.82776632484
0.62049216345301	36.986746489306	209.28753283481
0.62253999237530	-8.5857130112052	254.32214819104
0.62458782129759	-27.789761204670	199.06126786305
0.62663565021987	35.731763043651	210.23674424035
0.62868347914216	3.0969793682688	271.24387841218
0.63073130806445	-35.939959784864	222.07791989692
0.63277913698674	30.729392755956	212.98247096600
0.63482696590902	16.225463267727	286.26916556103
0.63687479483131	-41.313972600235	249.74928868978
0.63892262375360	21.949220598205	219.00216648136
0.64097045267588	29.769667987385	299.23591795159
0.64301828159817	-42.965031022659	281.73930772237
0.64506611052046	9.6795809621965	229.91511514606
0.64711393944275	42.530365526366	310.36615439702
0.64916176836503	-40.113372203696	317.56348818408
0.65120959728732	-5.4592822899436	247.44694445864
0.65325742620961	53.205945204050	320.35628436543
0.65530525513189	-32.208390448802	356.68354121391
0.65735308405418	-22.520190891613	273.41924388851
0.65940091297647	60.464951502706	330.47479834448
0.66144874189876	-18.972909164034	398.64511126835
0.66349657082104	-40.248025085766	309.78823836630
0.66554439974333	63.017206174943	342.68548003665
0.66759222866562	-0.42243287366911	443.27183095276
0.66964005758790	-57.103773894768	358.77014829345
0.67168788651019	59.672226369789	359.83386911170
0.67373571543248	23.148597670453	490.94648211482
0.67578354435477	-71.275820605459	423.12236454012
0.67783137327705	49.371857224698	385.97576980029
0.67987920219934	51.225537026553	543.04624344464
0.68192703112163	-80.643414287423	506.71905436439
0.68397486004391	31.177841068362	427.01991881979
0.68602268896620	83.203563351484	602.69033137759
0.68807051788849	-82.610911803484	615.72923295866
0.69011834681078	4.1814285895513	492.08655473029
0.69216617573306	118.65443395345	676.19376482823
0.69421400465535	-73.610029414190	761.17600073472
0.69626183357764	-32.723946197924	596.64647438692
0.69830966249993	157.93796020533	776.33214030288
0.70035749142221	-47.637972877145	965.12430663533
0.70240532034450	-81.305794074629	770.69946620951
0.70445314926679	203.93253566226	931.02021918051
0.70650097818907	8.5848839742787	1278.3226924478
0.70854880711136	-144.65568556849	1084.3788503917
0.71059663603365	268.71302590936	1212.3250534699
0.71264446495594	136.72981854780	1845.1834394781
0.71469229387822	-224.18540584992	1756.6083288742
0.71674012280051	415.64566166145	1877.1619190154
0.71878795172280	569.02502101907	3282.3841420314
0.72083578064508	-183.01520604419	4010.5167559902
0.72288360956737	1639.8418218090	4932.6449650987
0.72493143848966	11233.010866474	12913.159123346
0.72697926741195	14215.690224861	-11650.774922370
0.72902709633423	1330.2892124983	-5198.2490157728
0.73107492525652	26.894373952311	-4428.0729939241
0.73312275417881	815.91176441462	-3123.7229127706
0.73517058310109	274.66363628489	-1766.9857717541
0.73721841202338	-204.42626384192	-1879.2598289195
0.73926624094567	286.96692274209	-1748.7856914160
0.74131406986796	204.75158417433	-1073.4230645073
0.74336189879024	-168.03915497539	-1123.2673775572
0.74540972771253	116.29362501241	-1215.2988462689
0.74745755663482	180.80982973221	-791.56354077928
0.74950538555710	-120.80363845427	-764.35177142681
0.75155321447939	30.587209872891	-921.03247361216
0.75360104340168	160.69912616045	-644.25911575712
0.75564887232397	-76.964201111958	-559.52458360916
0.75769670124625	-19.260330051126	-727.16646996599
0.75974453016854	138.52344254915	-554.94159639512
0.76179235909083	-38.306584849478	-432.22955703353
0.76384018801311	-48.507435357088	-585.49536421861
0.76588801693540	113.81886893074	-493.76584794930
0.76793584585769	-5.4383011805797	-350.21574435060
0.76998367477998	-63.632461611769	-475.46999565725
0.77203150370226	87.474298847343	-446.70690086328
0.77407933262455	21.180156295040	-297.04486675417
0.77612716154684	-68.205494348285	-387.22029562341
0.77817499046912	60.795567684437	-406.48058189022
0.78022281939141	41.225571211026	-263.03388438777
0.78227064831370	-64.720239798177	-315.59925193061
0.78431847723599	35.174710153192	-369.19120039185
0.78636630615827	54.597831488498	-241.79251846904
